
Index;Column 2 (V);Column 3 (V);Column 4 (V);Column 5 (V);Column 6 (V/s);Column 7 (V);Time (s);Potential applied (V);WE(1).Current (A);WE(1).Potential (V);Scan;Column 13;Column 14;Frequency (Hz);Z' (Ω);-Z'' (Ω);Z (Ω);-Phase (°);Time (s);Y' (Mho);-Y'' (Mho)
1;0;0.01;-1;-0.01;0.01;-0.00244;4455.66632675052;-0.0146484375;1.18133544921875E-06;-0.0143707275390625;3;3;3;100000;32.1182464530396;2.86510607445362;32.2457840350651;5.0975734896952;3832.41602032408;0.0308891490484675;0.00275546452085625
2;;;;;;;4455.91046774991;-0.01708984375;1.09619140625E-06;-0.016827392578125;3;;;100000;32.1083218976148;2.86714575376929;32.2360800944253;5.10275176289525;3840.78932730294;0.0308981982917701;0.00275908651700516
3;;;;;;;4456.15460874929;-0.01953125;9.9395751953125E-07;-0.0192596435546875;3;;;79433;31.3002213430593;2.20632852567276;31.377886188966;4.03206616528161;3834.35686331918;0.0317906964193448;0.00224090173651621
4;;;;;;;4456.39874974868;-0.02197265625;9.1827392578125E-07;-0.021697998046875;3;;;63096;30.812206487336;1.81814371565337;30.865801709805;3.37695093426109;3836.50682531375;0.0323420598119345;0.00190841616041105
5;;;;;;;4456.64289074806;-0.0244140625;8.5784912109375E-07;-0.024151611328125;3;;;50119;30.4991363757811;1.59326925339951;30.540724067748;2.99040265246458;3838.68934830824;0.0326985792831978;0.00170816774481309
6;;;;;;;4456.88703174744;-0.02685546875;7.60498046875E-07;-0.0265899658203125;3;;;31623;30.2779471452181;1.42669325756929;30.3115413164659;2.69777486846995;3846.1901092893;0.0329541705979214;0.00155279658740893
7;;;;;;;4457.13117274683;-0.029296875;6.84814453125E-07;-0.0290435791015625;3;;;25119;30.2863121924226;1.44129920077075;30.3205878835327;2.72460062692434;3848.00774428471;0.0329436078551304;0.00156775758535514
8;;;;;;;4457.37531374621;-0.03173828125;6.268310546875E-07;-0.0315032958984375;3;;;19953;30.3291957793839;1.50094332586339;30.3663127081911;2.83316497259384;3850.0322202796;0.0328909770347395;0.00162772177740947
9;;;;;;;4457.61945474559;-0.0341796875;5.5999755859375E-07;-0.0339263916015625;3;;;15849;30.4454772431095;1.6083022641286;30.4879274588074;3.0238763878538;3852.06993127446;0.0327541988504315;0.00173026199426024
10;;;;;;;4457.86359574498;-0.03662109375;5.0323486328125E-07;-0.0363433837890625;3;;;12589;30.5663711469308;1.75073220870113;30.6164679275469;3.27811535399853;3854.12617326927;0.0326087167617189;0.00186771044703768
11;;;;;;;4458.10773674436;-0.0390625;4.3304443359375E-07;-0.0389434814453125;3;;;10000;30.7142846978552;1.93262767694421;30.7750277699078;3.60046206056566;3857.82750725992;0.0324297423704983;0.00204056901464393
12;;;;;;;4458.35187774374;-0.04150390625;3.753662109375E-07;-0.0412109375;3;;;7943.3;30.9106010227019;2.1595783622451;30.9859489815519;3.99649266493884;3859.82605925488;0.0321942154844276;0.00224925846956399
13;;;;;;;4458.59601874313;-0.0439453125;3.082275390625E-07;-0.0436492919921875;3;;;6309.6;31.130913488397;2.42403648599861;31.2251457563854;4.45240328511098;3862.0334542493;0.0319288234877197;0.00248616646338016
14;;;;;;;4458.84015974251;-0.04638671875;2.5787353515625E-07;-0.0460601806640625;3;;;5011.9;31.3583792916918;2.73513818377258;31.4774352939679;4.98483270723699;3864.10774324407;0.031648631017148;0.00276045449778921
15;;;;;;;4459.08430074189;-0.048828125;2.069091796875E-07;-0.0484893798828125;3;;;3981.1;31.628187608426;3.0960900236666;31.7793647643945;5.59088326847649;3866.2717902386;0.0313172689843901;0.00306565413331564
16;;;;;;;4459.32844174128;-0.05126953125;1.5777587890625E-07;-0.0511474609375;3;;;3162.3;31.9179219888753;3.52253772147022;32.1117115097765;6.29781209652605;3868.30450923347;0.0309533531015741;0.00341608560683508
17;;;;;;;4459.57258274066;-0.0537109375;1.177978515625E-07;-0.05352783203125;3;;;2511.9;32.2256622195411;4.02068962369702;32.4755177100852;7.11185467687412;3870.33395322835;0.0305555203759891;0.00381231153251229
18;;;;;;;4459.81672374004;-0.05615234375;6.591796875E-08;-0.055999755859375;3;;;1995.3;32.5989912447241;4.62033802191116;32.9247893480022;8.06694646845019;3872.36537722322;0.0300717118470351;0.00426214027875171
19;;;;;;;4460.06086473943;-0.05859375;2.105712890625E-08;-0.05841064453125;3;;;1584.9;32.9658938898374;5.32892057640437;33.3938250948532;9.18240400244053;3874.38169621813;0.0295619120158802;0.00477866857624762
20;;;;;;;4460.30500573881;-0.06103515625;-2.3193359375E-08;-0.060791015625;3;;;1258.9;33.3710780081273;6.18448945780886;33.9393099116388;10.4992127546993;3876.414079213;0.0289710490269626;0.00536905482182139
21;;;;;;;4460.5491467382;-0.0634765625;-6.134033203125E-08;-0.06317138671875;3;;;1000;33.8432235883294;7.22570499142799;34.6059907454302;12.0519946445715;3878.45932020783;0.0282598042044873;0.00603361579207123
22;;;;;;;4460.79328773758;-0.06591796875;-1.01318359375E-07;-0.065673828125;3;;;794.33;34.3721207944353;8.4916119531005;35.4055103263502;13.8770211446418;3880.47758720274;0.0274198208025019;0.00677405038434797
23;;;;;;;4461.03742873696;-0.068359375;-1.416015625E-07;-0.067962646484375;3;;;630.96;34.9902774711254;10.0335389324972;36.4004316048077;16.0003605956396;3882.50707619761;0.0264079275655139;0.007572531243109
24;;;;;;;4461.28156973635;-0.07080078125;-1.922607421875E-07;-0.07061767578125;3;;;501.19;35.6942601614152;11.8963327849554;37.6244992285771;18.4324149386175;3884.63932519223;0.0252148813041546;0.00840372143226625
25;;;;;;;4461.52571073573;-0.0732421875;-2.33154296875E-07;-0.072906494140625;3;;;398.11;36.529488358986;14.1477497444367;39.1734903040373;21.1712205355859;3886.66760918711;0.0238044993969305;0.00921940370337875
26;;;;;;;4461.76985173511;-0.07568359375;-2.8900146484375E-07;-0.07525634765625;3;;;316.23;37.5613066964982;16.8736949801127;41.1773401645891;24.191083418019;3888.99228118124;0.0221525697197915;0.00995161610052002
27;;;;;;;4462.0139927345;-0.078125;-3.30810546875E-07;-0.07781982421875;3;;;251.19;38.766224515153;20.1206144128092;43.6767591232247;27.4304115931835;3891.05528617603;0.0203213565278682;0.0105472788272852
28;;;;;;;4462.25813373388;-0.08056640625;-3.96728515625E-07;-0.080291748046875;3;;;199.53;40.1964604624022;24.0250912523344;46.8290555466204;30.8664110326017;3893.0081341711;0.0183297699616927;0.010955551580863
29;;;;;;;4462.50227473327;-0.0830078125;-4.1412353515625E-07;-0.0826416015625;3;;;158.49;41.9193388740082;28.6823478051211;50.7927952297161;34.3809916475654;3894.94654216621;0.0162483848673312;0.0111175853091811
30;;;;;;;4462.74641573265;-0.08544921875;-4.718017578125E-07;-0.085113525390625;3;;;125.89;43.9420098186058;34.2293252252102;55.70051105934;37.9173731922852;3896.95613816113;0.0141632055140039;0.0110326534851635
31;;;;;;;4462.99055673203;-0.087890625;-5.3070068359375E-07;-0.0875244140625;3;;;100;46.3471545400426;40.8463673974421;61.777701992915;41.3901589286042;3898.84536615636;0.0121439390053825;0.0107026159251572
32;;;;;;;4463.23469773142;-0.09033203125;-5.938720703125E-07;-0.0899658203125;3;;;79.433;49.1832833584958;48.7858723507206;69.2752243081384;44.7675814554107;3900.89428915119;0.010248531410003;0.0101657211761645
33;;;;;;;4463.4788387308;-0.0927734375;-6.353759765625E-07;-0.092376708984375;3;;;63.096;52.5030941406715;58.2761944649554;78.4390829603554;47.9831869588971;3902.9895781459;0.00853335636873725;0.00947166149581405
34;;;;;;;4463.72297973018;-0.09521484375;-6.982421875E-07;-0.094757080078125;3;;;50.119;56.3548728053211;69.6403745664622;89.5860115121835;51.0192801920256;3905.02206514077;0.00702184228307346;0.00867722172719881
35;;;;;;;4463.96712072957;-0.09765625;-7.4615478515625E-07;-0.097259521484375;3;;;39.811;60.8914891305283;83.3386505988607;103.21387567654;53.8462214353401;3915.1104471153;0.00571584473173756;0.00782294527162079
36;;;;;;;4464.21126172895;-0.10009765625;-8.10546875E-07;-0.0997314453125;3;;;31.623;66.1242869521029;99.7874936182094;119.707832690799;56.4695127006199;3917.39902210952;0.00461440666425098;0.00696355449389271
37;;;;;;;4464.45540272833;-0.1025390625;-8.9111328125E-07;-0.10223388671875;3;;;25.119;72.1995922270124;119.637978688377;139.735561194663;58.8896955532359;3919.61989310391;0.00369760791564657;0.00612710298444855
38;;;;;;;4464.69954372772;-0.10498046875;-9.4329833984375E-07;-0.10455322265625;3;;;19.953;79.258608526519;143.609307593911;164.029144523656;61.1055008871356;3922.2398860973;0.00294580777284514;0.00533753269742938
39;;;;;;;4464.9436847271;-0.107421875;-1.01776123046875E-06;-0.106964111328125;3;;;15.849;87.3531979848472;172.654431981878;193.494532432224;63.1632171295627;3924.78743309086;0.00233314330006078;0.00461148006595243
40;;;;;;;4465.18782572648;-0.10986328125;-1.08154296875E-06;-0.109283447265625;3;;;12.589;96.8258408320585;208.079986052565;229.504954300492;65.0460324816953;3927.64944408364;0.00183826088802877;0.00395044645783604
41;;;;;;;4465.43196672587;-0.1123046875;-1.16943359375E-06;-0.11187744140625;3;;;10;107.66406730957;251.105852130349;273.213653326016;66.7922973040778;3930.54548907633;0.00144233447854227;0.00336396940355186
42;;;;;;;4465.67610772525;-0.11474609375;-1.2579345703125E-06;-0.1142578125;3;;;7.9433;120.27240724677;303.676873965529;326.626844773067;68.3937652071509;3933.49390906888;0.00112735904137168;0.00284647890033581
43;;;;;;;4465.92024872463;-0.1171875;-1.3311767578125E-06;-0.11663818359375;3;;;6.3096;135.023771222479;367.982512515704;391.972637198709;69.8504050488192;3936.38487906158;0.000878817571730448;0.00239505603465535
44;;;;;;;4466.16438972402;-0.11962890625;-1.43890380859375E-06;-0.119171142578125;3;;;5.0119;152.071411839227;446.665352698495;471.842825101799;71.1983765953493;3939.387191054;0.00068305058397572;0.00200626157350983
45;;;;;;;4466.4085307234;-0.1220703125;-1.5386962890625E-06;-0.121490478515625;3;;;3.9811;172.422805197457;543.275459994351;569.980569128662;72.3917906077017;3942.44251804629;0.000530731182905851;0.00167224531114852
46;;;;;;;4466.65267172279;-0.12451171875;-1.6473388671875E-06;-0.12396240234375;3;;;3.1623;196.6549061007;661.906242777818;690.502010367619;73.4531117526701;3945.47006903865;0.000412453402722388;0.00138824648481999
47;;;;;;;4466.89681272217;-0.126953125;-1.746826171875E-06;-0.126373291015625;3;;;2.5119;225.701039078368;808.692867596634;839.598185528483;74.4059199005919;3948.58090903079;0.000320177327875495;0.00114720394055943
48;;;;;;;4467.14095372155;-0.12939453125;-1.86798095703125E-06;-0.12884521484375;3;;;1.9953;261.608698498945;987.784866065636;1021.84052217487;75.1661355663608;3951.97470102222;0.000250545114130746;0.000946010868235851
49;;;;;;;4467.38509472094;-0.1318359375;-2.0068359375E-06;-0.131195068359375;3;;;1.5849;304.490668171195;1207.41731834849;1245.21931708884;75.8460735120358;3955.56157201317;0.000196373232297298;0.000778691980808159
50;;;;;;;4467.62923572032;-0.13427734375;-2.1343994140625E-06;-0.133636474609375;3;;;1.2589;359.552635704891;1477.15909813404;1520.28849204435;76.3197699049649;3959.1520180041;0.000155564486773933;0.000639109477070485
51;;;;;;;4467.8733767197;-0.13671875;-2.24884033203125E-06;-0.136077880859375;3;;;1;424.860901660584;1810.31412465638;1859.50101255424;76.7923337095002;3965.47647798813;0.000122872283122373;0.000523553541396268
52;;;;;;;4468.11751771909;-0.13916015625;-2.40814208984375E-06;-0.138519287109375;3;;;0.79433;507.472779574355;2215.34290733583;2272.72365656102;77.0977509599683;3969.45946497808;9.82470427696701E-05;0.000428891751689744
53;;;;;;;4468.36165871847;-0.1416015625;-2.57720947265625E-06;-0.140899658203125;3;;;0.63096;609.319770637222;2709.62590262178;2777.2906068772;77.3265815808085;3973.69729796738;7.8995548564211E-05;0.00035129072598047
54;;;;;;;4468.60579971786;-0.14404296875;-2.7264404296875E-06;-0.143341064453125;3;;;0.50119;735.486996814377;3318.8565768008;3399.37495723214;77.5047027907938;3978.19649595602;6.36468416553486E-05;0.000287203906983232
55;;;;;;;4468.84994071724;-0.146484375;-2.9193115234375E-06;-0.145751953125;3;;;0.39811;894.458606981773;4057.37345270756;4154.79668989228;77.5678478429699;3982.98681494392;5.18156193408726E-05;0.000235041975903912
56;;;;;;;4469.09408171662;-0.14892578125;-3.0975341796875E-06;-0.14813232421875;3;;;0.31623;1095.06354340818;4954.04525721434;5073.63070932735;77.535521430685;3988.48768993004;4.25404043956647E-05;0.000192451926561642
57;;;;;;;4469.33822271601;-0.1513671875;-3.299560546875E-06;-0.15093994140625;3;;;0.25119;1338.95699427601;6062.58470481544;6208.68256038129;77.5458198302738;3994.7587949142;3.47350330862867E-05;0.000157274715476612
58;;;;;;;4469.58236371539;-0.15380859375;-3.507080078125E-06;-0.15338134765625;3;;;0.19953;1641.63533203812;7372.50212122502;7553.06256367994;77.4467440561712;4001.82396689637;2.87760067366842E-05;0.000129231606171146
59;;;;;;;4469.82650471477;-0.15625;-3.741455078125E-06;-0.155792236328125;3;;;0.15849;2031.91199716485;9016.05700528728;9242.18319915875;77.2996625514655;4009.99989687572;2.37878805373133E-05;0.000105552251898033
60;;;;;;;4470.07064571416;-0.15869140625;-3.9794921875E-06;-0.158233642578125;3;;;0.12589;2479.32594728874;10974.1270046733;11250.7120071398;77.2692000463246;4019.34341985213;1.95872564650962E-05;8.66981771219452E-05
61;;;;;;;4470.31478671354;-0.1611328125;-4.2144775390625E-06;-0.160675048828125;3;;;0.1;3065.2571530081;13410.1755641222;13756.0390401688;77.124697291627;4030.43648882413;1.61986982401809E-05;7.08675900479958E-05
62;;;;;;;4470.55892771292;-0.16357421875;-4.4952392578125E-06;-0.1630859375;3;;;;;;;;;;
63;;;;;;;4470.80306871231;-0.166015625;-4.7943115234375E-06;-0.165557861328125;3;;;;;;;;;;
64;;;;;;;4471.04720971169;-0.16845703125;-5.0628662109375E-06;-0.16796875;3;;;;;;;;;;
65;;;;;;;4471.29135071107;-0.1708984375;-5.389404296875E-06;-0.170379638671875;3;;;;;;;;;;
66;;;;;;;4471.53549171046;-0.17333984375;-5.70068359375E-06;-0.172821044921875;3;;;;;;;;;;
67;;;;;;;4471.77963270984;-0.17578125;-6.06689453125E-06;-0.175201416015625;3;;;;;;;;;;
68;;;;;;;4472.02377370923;-0.17822265625;-6.4483642578125E-06;-0.17767333984375;3;;;;;;;;;;
69;;;;;;;4472.26791470861;-0.1806640625;-6.8603515625E-06;-0.180206298828125;3;;;;;;;;;;
70;;;;;;;4472.51205570799;-0.18310546875;-7.2723388671875E-06;-0.18255615234375;3;;;;;;;;;;
71;;;;;;;4472.75619670738;-0.185546875;-7.6995849609375E-06;-0.185089111328125;3;;;;;;;;;;
72;;;;;;;4473.00033770676;-0.18798828125;-8.1787109375E-06;-0.18743896484375;3;;;;;;;;;;
73;;;;;;;4473.24447870614;-0.1904296875;-8.6639404296875E-06;-0.18988037109375;3;;;;;;;;;;
74;;;;;;;4473.48861970553;-0.19287109375;-9.173583984375E-06;-0.19232177734375;3;;;;;;;;;;
75;;;;;;;4473.73276070491;-0.1953125;-9.7381591796875E-06;-0.194732666015625;3;;;;;;;;;;
76;;;;;;;4473.97690170429;-0.19775390625;-1.02874755859375E-05;-0.197113037109375;3;;;;;;;;;;
77;;;;;;;4474.22104270368;-0.2001953125;-1.0894775390625E-05;-0.199615478515625;3;;;;;;;;;;
78;;;;;;;4474.46518370306;-0.20263671875;-1.1517333984375E-05;-0.202056884765625;3;;;;;;;;;;
79;;;;;;;4474.70932470245;-0.205078125;-1.2225341796875E-05;-0.204437255859375;3;;;;;;;;;;
80;;;;;;;4474.95346570183;-0.20751953125;-1.29180908203125E-05;-0.2069091796875;3;;;;;;;;;;
81;;;;;;;4475.19760670121;-0.2099609375;-1.36688232421875E-05;-0.209320068359375;3;;;;;;;;;;
82;;;;;;;4475.4417477006;-0.21240234375;-1.4422607421875E-05;-0.211669921875;3;;;;;;;;;;
83;;;;;;;4475.68588869998;-0.21484375;-1.52984619140625E-05;-0.21417236328125;3;;;;;;;;;;
84;;;;;;;4475.93002969936;-0.21728515625;-1.61285400390625E-05;-0.216583251953125;3;;;;;;;;;;
85;;;;;;;4476.17417069875;-0.2197265625;-1.70562744140625E-05;-0.218994140625;3;;;;;;;;;;
86;;;;;;;4476.41831169813;-0.22216796875;-1.7987060546875E-05;-0.221405029296875;3;;;;;;;;;;
87;;;;;;;4476.66245269751;-0.224609375;-1.8994140625E-05;-0.223876953125;3;;;;;;;;;;
88;;;;;;;4476.9065936969;-0.22705078125;-2.005615234375E-05;-0.226287841796875;3;;;;;;;;;;
89;;;;;;;4477.15073469628;-0.2294921875;-2.12005615234375E-05;-0.228668212890625;3;;;;;;;;;;
90;;;;;;;4477.39487569566;-0.23193359375;-2.23388671875E-05;-0.231109619140625;3;;;;;;;;;;
91;;;;;;;4477.63901669505;-0.234375;-2.3565673828125E-05;-0.233489990234375;3;;;;;;;;;;
92;;;;;;;4477.88315769443;-0.23681640625;-2.48626708984375E-05;-0.23590087890625;3;;;;;;;;;;
93;;;;;;;4478.12729869382;-0.2392578125;-2.6202392578125E-05;-0.238372802734375;3;;;;;;;;;;
94;;;;;;;4478.3714396932;-0.24169921875;-2.764892578125E-05;-0.240753173828125;3;;;;;;;;;;
95;;;;;;;4478.61558069258;-0.244140625;-2.91107177734375E-05;-0.243255615234375;3;;;;;;;;;;
96;;;;;;;4478.85972169197;-0.24658203125;-3.06976318359375E-05;-0.24560546875;3;;;;;;;;;;
97;;;;;;;4479.10386269135;-0.2490234375;-3.23028564453125E-05;-0.248504638671875;3;;;;;;;;;;
98;;;;;;;4479.34800369073;-0.25146484375;-3.404541015625E-05;-0.250823974609375;3;;;;;;;;;;
99;;;;;;;4479.59214469012;-0.25390625;-3.58306884765625E-05;-0.25323486328125;3;;;;;;;;;;
100;;;;;;;4479.8362856895;-0.25634765625;-3.77685546875E-05;-0.255645751953125;3;;;;;;;;;;
101;;;;;;;4480.08042668888;-0.2587890625;-3.97430419921875E-05;-0.25811767578125;3;;;;;;;;;;
102;;;;;;;4480.32456768827;-0.26123046875;-4.18060302734375E-05;-0.2606201171875;3;;;;;;;;;;
103;;;;;;;4480.56870868765;-0.263671875;-4.40032958984375E-05;-0.263031005859375;3;;;;;;;;;;
104;;;;;;;4480.81284968703;-0.26611328125;-4.6282958984375E-05;-0.265472412109375;3;;;;;;;;;;
105;;;;;;;4481.05699068642;-0.2685546875;-4.864501953125E-05;-0.2679443359375;3;;;;;;;;;;
106;;;;;;;4481.3011316858;-0.27099609375;-5.1177978515625E-05;-0.270355224609375;3;;;;;;;;;;
107;;;;;;;4481.54527268519;-0.2734375;-5.3802490234375E-05;-0.272796630859375;3;;;;;;;;;;
108;;;;;;;4481.78941368457;-0.27587890625;-5.65185546875E-05;-0.27520751953125;3;;;;;;;;;;
109;;;;;;;4482.03355468395;-0.2783203125;-5.9356689453125E-05;-0.277618408203125;3;;;;;;;;;;
110;;;;;;;4482.27769568334;-0.28076171875;-6.2347412109375E-05;-0.28009033203125;3;;;;;;;;;;
111;;;;;;;4482.52183668272;-0.283203125;-6.5460205078125E-05;-0.282470703125;3;;;;;;;;;;
112;;;;;;;4482.7659776821;-0.28564453125;-6.87255859375E-05;-0.284942626953125;3;;;;;;;;;;
113;;;;;;;4483.01011868149;-0.2880859375;-7.208251953125E-05;-0.287384033203125;3;;;;;;;;;;
114;;;;;;;4483.25425968087;-0.29052734375;-7.5592041015625E-05;-0.289825439453125;3;;;;;;;;;;
115;;;;;;;4483.49840068026;-0.29296875;-7.92236328125E-05;-0.29217529296875;3;;;;;;;;;;
116;;;;;;;4483.74254167964;-0.29541015625;-8.30078125E-05;-0.294647216796875;3;;;;;;;;;;
117;;;;;;;4483.98668267902;-0.2978515625;-8.6883544921875E-05;-0.297119140625;3;;;;;;;;;;
118;;;;;;;4484.23082367841;-0.30029296875;-9.088134765625E-05;-0.299530029296875;3;;;;;;;;;;
119;;;;;;;4484.47496467779;-0.302734375;-9.503173828125E-05;-0.302001953125;3;;;;;;;;;;
120;;;;;;;4484.71910567717;-0.30517578125;-9.930419921875E-05;-0.304412841796875;3;;;;;;;;;;
121;;;;;;;4484.96324667656;-0.3076171875;-0.000103668212890625;-0.306884765625;3;;;;;;;;;;
122;;;;;;;4485.20738767594;-0.31005859375;-0.000108123779296875;-0.30926513671875;3;;;;;;;;;;
123;;;;;;;4485.45152867532;-0.3125;-0.000112701416015625;-0.31170654296875;3;;;;;;;;;;
124;;;;;;;4485.69566967471;-0.31494140625;-0.000117340087890625;-0.3140869140625;3;;;;;;;;;;
125;;;;;;;4485.93981067409;-0.3173828125;-0.000122039794921875;-0.316558837890625;3;;;;;;;;;;
126;;;;;;;4486.18395167347;-0.31982421875;-0.000126800537109375;-0.31903076171875;3;;;;;;;;;;
127;;;;;;;4486.42809267286;-0.322265625;-0.000131561279296875;-0.321441650390625;3;;;;;;;;;;
128;;;;;;;4486.67223367224;-0.32470703125;-0.000136260986328125;-0.323883056640625;3;;;;;;;;;;
129;;;;;;;4486.91637467162;-0.3271484375;-0.00014105224609375;-0.326324462890625;3;;;;;;;;;;
130;;;;;;;4487.16051567101;-0.32958984375;-0.000145751953125;-0.3287353515625;3;;;;;;;;;;
131;;;;;;;4487.40465667039;-0.33203125;-0.000150390625;-0.331146240234375;3;;;;;;;;;;
132;;;;;;;4487.64879766978;-0.33447265625;-0.0001549072265625;-0.333526611328125;3;;;;;;;;;;
133;;;;;;;4487.89293866916;-0.3369140625;-0.00015924072265625;-0.33599853515625;3;;;;;;;;;;
134;;;;;;;4488.13707966854;-0.33935546875;-0.000163482666015625;-0.33843994140625;3;;;;;;;;;;
