
Index;Column 2 (V);Column 3 (V);Column 4 (V);Column 5 (V);Column 6 (V/s);Column 7 (V);Time (s);Potential applied (V);WE(1).Current (A);WE(1).Potential (V);Scan;Column 13;Column 14;Frequency (Hz);Z' (Ω);-Z'' (Ω);Z (Ω);-Phase (°);Time (s);Y' (Mho);-Y'' (Mho)
1;0.1;0.11;-0.9;-0.01;0.01;-0.00244;4770.70854095512;-0.014801025390625;-3.4454345703125E-08;-0.01451416015625;3;3;3;100000;39.3200240760138;5.72284101146257;39.734307626795;8.28097961605879;4153.92571051235;0.0249047665690956;0.00362476938536431
2;;;;;;;4770.9526819545;-0.017242431640625;-1.2115478515625E-07;-0.016943359375;3;;;79433;38.5482419784043;4.33561332372082;38.7912941588501;6.41722517382221;4155.63280950804;0.0256174583557017;0.00288125704484958
3;;;;;;;4771.19682295389;-0.019683837890625;-2.2308349609375E-07;-0.01942138671875;3;;;63096;38.0347145635602;3.45350214869477;38.1911794662398;5.18815502591472;4157.52971750325;0.026076783384818;0.00236773769657251
4;;;;;;;4771.44096395327;-0.022125244140625;-3.3966064453125E-07;-0.0218292236328125;3;;;50119;37.7201381743673;2.88942715091553;37.8306438374211;4.38040034762386;4159.44387549841;0.026356382992118;0.00201894405225443
5;;;;;;;4771.68510495265;-0.024566650390625;-5.1300048828125E-07;-0.0242401123046875;3;;;39811;37.5574673196239;2.53240290279789;37.6427471888904;3.85746738861544;4161.28157849377;0.0265053580973406;0.00178718775720884
6;;;;;;;4771.92924595204;-0.027008056640625;-7.086181640625E-07;-0.026678466796875;3;;;31623;37.5184649350361;2.31242111768978;37.5896595157108;3.52691889078666;4163.08893848921;0.0265526748338827;0.00163655325779819
7;;;;;;;4772.17338695142;-0.029449462890625;-9.698486328125E-07;-0.0291046142578125;3;;;25119;37.5414641796719;2.18797607482703;37.6051694858248;3.33551568831707;4164.90045148464;0.0265470401144913;0.00154720360266162
8;;;;;;;4772.4175279508;-0.031890869140625;-1.28509521484375E-06;-0.031549072265625;3;;;19953;37.6315614909161;2.1419164263717;37.6924690916124;3.25765119559597;4166.73163248001;0.0264876277687174;0.0015076250563541
9;;;;;;;4772.66166895019;-0.034332275390625;-1.6839599609375E-06;-0.0340179443359375;3;;;15849;37.7492922716633;2.15840502304489;37.8109478756479;3.2724585788758;4168.55028347542;0.026404240774969;0.001509724884595
10;;;;;;;4772.90580994957;-0.036773681640625;-2.18841552734375E-06;-0.0364166259765625;3;;;12589;37.8925961380871;2.2273275651645;37.958000871578;3.36397635717518;4170.36866347083;0.0262995124996493;0.00154588587510315
11;;;;;;;4773.14995094895;-0.039215087890625;-2.80303955078125E-06;-0.0387969970703125;3;;;10000;38.0528277181954;2.35369423124354;38.1255501453402;3.53942578297316;4173.60900446265;0.0261790990614108;0.00161926453656249
12;;;;;;;4773.39409194834;-0.041656494140625;-3.5736083984375E-06;-0.0412322998046875;3;;;7943.3;38.2677878987325;2.53736678884517;38.3518163961436;3.79347552805249;4175.3316044583;0.0260172555677229;0.00172508848405695
13;;;;;;;4773.63823294772;-0.044097900390625;-4.54132080078125E-06;-0.043731689453125;3;;;6309.6;38.4642957413908;2.7773321881699;38.5644346641387;4.12990084156734;4177.14786045372;0.0258632946017892;0.00186747109768017
14;;;;;;;4773.88237394711;-0.046539306640625;-5.72509765625E-06;-0.0461639404296875;3;;;5011.9;38.6945268895069;3.08467719039845;38.8172853838562;4.55790581412636;4178.9748464491;0.0256802483816458;0.00204719589033432
15;;;;;;;4774.12651494649;-0.048980712890625;-7.1807861328125E-06;-0.04859619140625;3;;;3981.1;38.9420111609912;3.47125374692442;39.0964171739342;5.09382816564248;4180.81602144445;0.0254767752960701;0.00227097545990698
16;;;;;;;4774.37065594587;-0.051422119140625;-8.9508056640625E-06;-0.05108642578125;3;;;3162.3;39.1990332563725;3.95042020136958;39.3975891140763;5.75475347777656;4182.6181674399;0.0252543423395703;0.00254509501543187
17;;;;;;;4774.61479694526;-0.053863525390625;-1.1090087890625E-05;-0.053466796875;3;;;2511.9;39.5098489367553;4.54746725336543;39.7706879677188;6.56568459580949;4184.53421043507;0.0249792366184235;0.00287503656919008
18;;;;;;;4774.85893794464;-0.056304931640625;-1.36474609375E-05;-0.055877685546875;3;;;1995.3;39.8268953056749;5.28221115465995;40.1756561162553;7.55500322076995;4186.33538943052;0.0246746213227176;0.00327257645838383
19;;;;;;;4775.10307894402;-0.058746337890625;-1.6693115234375E-05;-0.058258056640625;3;;;1584.9;40.1747119084626;6.17832044674236;40.6470062916151;8.74281235878147;4188.11960642601;0.0243161963558887;0.00373949795769272
20;;;;;;;4775.34721994341;-0.061187744140625;-2.02606201171875E-05;-0.060638427734375;3;;;1258.9;40.5750179149838;7.28469429393766;41.223765594101;10.1782451844278;4189.93198742144;0.0238761006109758;0.0042866301192199
21;;;;;;;4775.59136094279;-0.063629150390625;-2.43865966796875E-05;-0.06304931640625;3;;;1000;41.0457781439096;8.64191332275928;41.9456621036924;11.8895895145171;4191.80306241672;0.023328906652217;0.00491174484489864
22;;;;;;;4775.83550194217;-0.066070556640625;-2.91290283203125E-05;-0.065399169921875;3;;;794.33;41.582436839986;10.3000422501239;42.8391167498324;13.9122423031246;4193.73195641184;0.0226583833631168;0.00561252114342625
23;;;;;;;4776.07964294156;-0.068511962890625;-3.45123291015625E-05;-0.067718505859375;3;;;630.96;42.237026075234;12.3252813593583;43.9986242088016;16.2678914430432;4195.53754140729;0.0218180100889703;0.00636676248391352
24;;;;;;;4776.32378394094;-0.070953369140625;-4.052734375E-05;-0.070587158203125;3;;;501.19;43.0055672873631;14.7829311636552;45.4754205202908;18.9701306764385;4197.3923644026;0.0207955893720511;0.00714837137574521
25;;;;;;;4776.56792494033;-0.073394775390625;-4.7198486328125E-05;-0.073028564453125;3;;;398.11;43.9280727960812;17.7464369509329;47.3773321751156;21.9981425731816;4199.19076239806;0.0195704560723057;0.00790623951113008
26;;;;;;;4776.81206593971;-0.075836181640625;-5.4443359375E-05;-0.07550048828125;3;;;316.23;45.0627117382839;21.3489099605303;49.8640546457115;25.349722106492;4201.03153739342;0.0181235029593504;0.00858619062021212
27;;;;;;;4777.05620693909;-0.078277587890625;-6.2286376953125E-05;-0.077911376953125;3;;;251.19;46.4235845067849;25.6940182638918;53.0597000839979;28.9631714897494;4202.88714938873;0.0164895608226143;0.00912646193612827
28;;;;;;;4777.30034793848;-0.080718994140625;-7.061767578125E-05;-0.080352783203125;3;;;199.53;48.0227418423476;30.8888717830959;57.0990904839061;32.7496677135364;4204.71024838413;0.0147295192130054;0.00947422435584383
29;;;;;;;4777.54448893786;-0.083160400390625;-7.9376220703125E-05;-0.082763671875;3;;;158.49;49.9777381829543;37.1656977890556;62.2821275008436;36.6361545050053;4206.57688837941;0.0128839704206038;0.00958110087380081
30;;;;;;;4777.78862993724;-0.085601806640625;-8.8409423828125E-05;-0.085174560546875;3;;;125.89;52.2846518819486;44.6938894353728;68.7839267218576;40.524435555685;4208.47075037463;0.0110509672170886;0.00944657158796176
31;;;;;;;4778.03277093663;-0.088043212890625;-9.7686767578125E-05;-0.087554931640625;3;;;100;55.0509741221074;53.7634782551616;76.9488229012386;44.322106250051;4210.24985537014;0.0092973899547516;0.00907994873175753
32;;;;;;;4778.27691193601;-0.090484619140625;-0.000106964111328125;-0.089996337890625;3;;;79.433;58.2924817205593;64.6504176410008;87.0499277788188;47.9603878818542;4212.15034436534;0.00769264542195919;0.00853167895094762
33;;;;;;;4778.52105293539;-0.092926025390625;-0.000116119384765625;-0.0924072265625;3;;;63.096;62.0336925143367;77.7784503494166;99.4870159655014;51.4252177861321;4214.11393636039;0.00626750694027608;0.00785826149646381
34;;;;;;;4778.76519393478;-0.095367431640625;-0.000124969482421875;-0.0948486328125;3;;;50.119;66.3765023229934;93.5933763349485;114.741274850899;54.6557016037439;4216.10589535536;0.00504167703800749;0.00710895512513385
35;;;;;;;4779.00933493416;-0.097808837890625;-0.00013330078125;-0.097259521484375;3;;;39.811;71.4068902831469;112.84993122087;133.544191024786;57.6760196282483;4225.72898133106;0.00400396356708083;0.00632777889310472
36;;;;;;;4779.25347593354;-0.100250244140625;-0.00014080810546875;-0.0997314453125;3;;;31.623;77.1211278699353;136.195870345721;156.515122154887;60.4792226504986;4227.86674232566;0.00314818875499169;0.0055596996483483
37;;;;;;;4779.49761693293;-0.102691650390625;-0.00014727783203125;-0.102203369140625;3;;;25.119;83.7083157834334;164.697965749756;184.749836409689;63.057887029158;4230.03317332019;0.00245245179074348;0.00482525322907926
38;;;;;;;4779.74175793231;-0.105133056640625;-0.000152374267578125;-0.104583740234375;3;;;19.953;91.2091685269446;199.688669274688;219.532861002794;65.4511247120089;4232.41509731418;0.00189251539984918;0.00414337602108602
39;;;;;;;4779.9858989317;-0.107574462890625;-0.00015576171875;-0.107025146484375;3;;;15.849;99.7068293974;242.508689589154;262.20586636216;67.6501106145352;4234.87560930797;0.00145024073049768;0.00352730080043023
40;;;;;;;4780.23003993108;-0.110015869140625;-0.0001571044921875;-0.109466552734375;3;;;12.589;109.182566532684;295.022785395565;314.577934282145;69.6914034413649;4237.33657330175;0.00110330804885135;0.00298125446267129
41;;;;;;;4780.47418093046;-0.112457275390625;-0.000156036376953125;-0.111907958984375;3;;;10;120.230467259528;360.140689337154;379.679708930678;71.5387708874192;4240.12768929471;0.000834026325480297;0.00249825874115118
42;;;;;;;4780.71832192985;-0.114898681640625;-0.000152191162109375;-0.11431884765625;3;;;7.9433;132.792293299684;440.369936831829;459.955948352729;73.2194653235961;4242.93356528762;0.000627683036463223;0.00208154202513782
43;;;;;;;4780.96246292923;-0.117340087890625;-0.00014544677734375;-0.116790771484375;3;;;6.3096;147.445403287858;540.171919731305;559.933790565387;74.7324633729815;4245.83797128029;0.000470281488349225;0.00172289436436175
44;;;;;;;4781.20660392861;-0.119781494140625;-0.000136016845703125;-0.11920166015625;3;;;5.0119;164.761999729916;663.777893707324;683.920762025494;76.059861108238;4248.71063727304;0.000352245520137308;0.00141909414675628
45;;;;;;;4781.450744928;-0.122222900390625;-0.000124420166015625;-0.12158203125;3;;;3.9811;186.384841599477;817.429847578708;838.409723757192;77.1553951404064;4251.67546126555;0.000265153873458781;0.00116288797150188
46;;;;;;;4781.69488592738;-0.124664306640625;-0.000111724853515625;-0.124114990234375;3;;;3.1623;212.450982496816;1007.42073780962;1029.57853655403;78.091606757072;4254.64804325805;0.000200419411796827;0.000950368265332713
47;;;;;;;4781.93902692676;-0.127105712890625;-9.9395751953125E-05;-0.1265869140625;3;;;2.5119;245.105951150984;1241.97505041845;1265.93007435306;78.8360391266381;4257.7556412502;0.000152944696215417;0.000774985249853714
48;;;;;;;4782.18316792615;-0.129547119140625;-8.8836669921875E-05;-0.128997802734375;3;;;1.9953;286.213243688734;1532.61683009605;1559.11268635609;79.4219693135433;4260.95070424213;0.000117742896370574;0.000630490547104269
49;;;;;;;4782.42730892553;-0.131988525390625;-8.062744140625E-05;-0.131500244140625;3;;;1.5849;336.949821302407;1891.17308326893;1920.95570301781;79.8976335946064;4264.18918023396;9.13125623820826E-05;0.000512503195501997
50;;;;;;;4782.67144992492;-0.134429931640625;-7.476806640625E-05;-0.1339111328125;3;;;1.2589;401.392203056779;2334.08822341352;2368.35038272475;80.2423108438296;4267.6183232253;7.15611027232735E-05;0.00041612648638631
51;;;;;;;4782.9155909243;-0.136871337890625;-7.0648193359375E-05;-0.136383056640625;3;;;1;478.811881405033;2878.15187995674;2917.70784381732;80.5547253645632;4273.75078120982;5.62446621962196E-05;0.000338088269160231
52;;;;;;;4783.15973192368;-0.139312744140625;-6.768798828125E-05;-0.1387939453125;3;;;0.79433;580.0912388099;3551.66534158511;3598.72651697248;80.7238233459994;4277.42515420054;4.47918106299972E-05;0.000274242241147755
53;;;;;;;4783.40387292307;-0.141754150390625;-6.549072265625E-05;-0.141265869140625;3;;;0.63096;704.742496630555;4381.41354331631;4437.72989535333;80.8623439529868;4281.41004319048;3.57856351953988E-05;0.000222480789012915
54;;;;;;;4783.64801392245;-0.144195556640625;-6.3720703125E-05;-0.143707275390625;3;;;0.50119;870.681592191377;5413.64488397762;5483.21414544408;80.8633081624976;4285.76979617947;2.89593592055628E-05;0.000180060872094337
55;;;;;;;4783.89215492183;-0.146636962890625;-6.2255859375E-05;-0.146087646484375;3;;;0.39811;1061.9535194573;6673.77562827126;6757.73826172598;80.9587044926715;4290.4713021676;2.32542734407566E-05;0.000146139920908579
56;;;;;;;4784.13629592122;-0.149078369140625;-6.1004638671875E-05;-0.1485595703125;3;;;0.31623;1318.42577823857;8210.71070191875;8315.88941504919;80.8776650882216;4295.78220515419;1.9065064329535E-05;0.000118730785082508
57;;;;;;;4784.3804369206;-0.151519775390625;-5.9906005859375E-05;-0.151031494140625;3;;;0.25119;1626.90742095577;10125.5888325242;10255.4559606924;80.8721367151743;4301.72689613918;1.54686670646807E-05;9.62742934641914E-05
58;;;;;;;4784.62457791998;-0.153961181640625;-5.89599609375E-05;-0.153472900390625;3;;;0.19953;2085.63021996975;12483.0019368247;12656.0337692825;80.5147699559014;4308.48806812211;1.30209317058016E-05;7.79334294960208E-05
59;;;;;;;4784.86871891937;-0.156402587890625;-5.810546875E-05;-0.155914306640625;3;;;0.15849;2591.33148380892;15285.9877622032;15504.0775515735;80.378501061831;4316.22109910259;1.07803064709549E-05;6.35918769240595E-05
60;;;;;;;4785.11285991875;-0.158843994140625;-5.7342529296875E-05;-0.158294677734375;3;;;0.12589;3317.10099230679;18929.0748328387;19217.5189090675;80.0605010000778;4325.34246407956;8.98181405941296E-06;5.12548248785866E-05
61;;;;;;;4785.35700091813;-0.161285400390625;-5.6610107421875E-05;-0.1607666015625;3;;;0.1;4280.7538686944;23140.4557850277;23533.0734844211;79.5193335724959;4335.9796510527;7.72970564680446E-06;4.17844420019671E-05
62;;;;;;;4785.60114191752;-0.163726806640625;-5.5938720703125E-05;-0.1632080078125;3;;;;;;;;;;
63;;;;;;;4785.8452829169;-0.166168212890625;-5.535888671875E-05;-0.165618896484375;3;;;;;;;;;;
64;;;;;;;4786.08942391629;-0.168609619140625;-5.48095703125E-05;-0.168060302734375;3;;;;;;;;;;
65;;;;;;;4786.33356491567;-0.171051025390625;-5.4290771484375E-05;-0.1705322265625;3;;;;;;;;;;
66;;;;;;;4786.57770591505;-0.173492431640625;-5.3802490234375E-05;-0.17291259765625;3;;;;;;;;;;
67;;;;;;;4786.82184691444;-0.175933837890625;-5.33447265625E-05;-0.175445556640625;3;;;;;;;;;;
68;;;;;;;4787.06598791382;-0.178375244140625;-5.291748046875E-05;-0.177825927734375;3;;;;;;;;;;
69;;;;;;;4787.3101289132;-0.180816650390625;-5.2490234375E-05;-0.18023681640625;3;;;;;;;;;;
70;;;;;;;4787.55426991259;-0.183258056640625;-5.21240234375E-05;-0.18267822265625;3;;;;;;;;;;
71;;;;;;;4787.79841091197;-0.185699462890625;-5.1727294921875E-05;-0.185150146484375;3;;;;;;;;;;
72;;;;;;;4788.04255191135;-0.188140869140625;-5.13916015625E-05;-0.187591552734375;3;;;;;;;;;;
73;;;;;;;4788.28669291074;-0.190582275390625;-5.1055908203125E-05;-0.19000244140625;3;;;;;;;;;;
74;;;;;;;4788.53083391012;-0.193023681640625;-5.072021484375E-05;-0.19244384765625;3;;;;;;;;;;
75;;;;;;;4788.77497490951;-0.195465087890625;-5.04150390625E-05;-0.19482421875;3;;;;;;;;;;
76;;;;;;;4789.01911590889;-0.197906494140625;-5.010986328125E-05;-0.197296142578125;3;;;;;;;;;;
77;;;;;;;4789.26325690827;-0.200347900390625;-4.9835205078125E-05;-0.199676513671875;3;;;;;;;;;;
78;;;;;;;4789.50739790766;-0.202789306640625;-4.9591064453125E-05;-0.202178955078125;3;;;;;;;;;;
79;;;;;;;4789.75153890704;-0.205230712890625;-4.93408203125E-05;-0.204620361328125;3;;;;;;;;;;
80;;;;;;;4789.99567990642;-0.207672119140625;-4.908447265625E-05;-0.20703125;3;;;;;;;;;;
81;;;;;;;4790.23982090581;-0.210113525390625;-4.884033203125E-05;-0.20947265625;3;;;;;;;;;;
82;;;;;;;4790.48396190519;-0.212554931640625;-4.8602294921875E-05;-0.211883544921875;3;;;;;;;;;;
83;;;;;;;4790.72810290457;-0.214996337890625;-4.83673095703125E-05;-0.214385986328125;3;;;;;;;;;;
84;;;;;;;4790.97224390396;-0.217437744140625;-4.814453125E-05;-0.216766357421875;3;;;;;;;;;;
85;;;;;;;4791.21638490334;-0.219879150390625;-4.79339599609375E-05;-0.21929931640625;3;;;;;;;;;;
86;;;;;;;4791.46052590272;-0.222320556640625;-4.77386474609375E-05;-0.22161865234375;3;;;;;;;;;;
87;;;;;;;4791.70466690211;-0.224761962890625;-4.7515869140625E-05;-0.22412109375;3;;;;;;;;;;
88;;;;;;;4791.94880790149;-0.227203369140625;-4.7320556640625E-05;-0.2265625;3;;;;;;;;;;
89;;;;;;;4792.19294890088;-0.229644775390625;-4.71405029296875E-05;-0.22900390625;3;;;;;;;;;;
90;;;;;;;4792.43708990026;-0.232086181640625;-4.696044921875E-05;-0.231353759765625;3;;;;;;;;;;
91;;;;;;;4792.68123089964;-0.234527587890625;-4.677734375E-05;-0.23388671875;3;;;;;;;;;;
92;;;;;;;4792.92537189903;-0.236968994140625;-4.6600341796875E-05;-0.236328125;3;;;;;;;;;;
93;;;;;;;4793.16951289841;-0.239410400390625;-4.6429443359375E-05;-0.23870849609375;3;;;;;;;;;;
94;;;;;;;4793.41365389779;-0.241851806640625;-4.62646484375E-05;-0.241119384765625;3;;;;;;;;;;
95;;;;;;;4793.65779489718;-0.244293212890625;-4.6112060546875E-05;-0.243621826171875;3;;;;;;;;;;
96;;;;;;;4793.90193589656;-0.246734619140625;-4.5947265625E-05;-0.246002197265625;3;;;;;;;;;;
97;;;;;;;4794.14607689595;-0.249176025390625;-4.580078125E-05;-0.248443603515625;3;;;;;;;;;;
98;;;;;;;4794.39021789533;-0.251617431640625;-4.5654296875E-05;-0.25091552734375;3;;;;;;;;;;
99;;;;;;;4794.63435889471;-0.254058837890625;-4.55108642578125E-05;-0.253326416015625;3;;;;;;;;;;
100;;;;;;;4794.8784998941;-0.256500244140625;-4.53643798828125E-05;-0.255767822265625;3;;;;;;;;;;
101;;;;;;;4795.12264089348;-0.258941650390625;-4.52301025390625E-05;-0.258209228515625;3;;;;;;;;;;
102;;;;;;;4795.36678189286;-0.261383056640625;-4.51019287109375E-05;-0.26068115234375;3;;;;;;;;;;
103;;;;;;;4795.61092289225;-0.263824462890625;-4.49676513671875E-05;-0.2630615234375;3;;;;;;;;;;
104;;;;;;;4795.85506389163;-0.266265869140625;-4.48394775390625E-05;-0.26556396484375;3;;;;;;;;;;
105;;;;;;;4796.09920489101;-0.268707275390625;-4.47265625E-05;-0.267974853515625;3;;;;;;;;;;
106;;;;;;;4796.3433458904;-0.271148681640625;-4.46014404296875E-05;-0.27044677734375;3;;;;;;;;;;
107;;;;;;;4796.58748688978;-0.273590087890625;-4.4482421875E-05;-0.2728271484375;3;;;;;;;;;;
108;;;;;;;4796.83162788916;-0.276031494140625;-4.43695068359375E-05;-0.275238037109375;3;;;;;;;;;;
109;;;;;;;4797.07576888855;-0.278472900390625;-4.42657470703125E-05;-0.2777099609375;3;;;;;;;;;;
110;;;;;;;4797.31990988793;-0.280914306640625;-4.41650390625E-05;-0.280120849609375;3;;;;;;;;;;
111;;;;;;;4797.56405088731;-0.283355712890625;-4.40521240234375E-05;-0.2825927734375;3;;;;;;;;;;
112;;;;;;;4797.8081918867;-0.285797119140625;-4.39544677734375E-05;-0.285003662109375;3;;;;;;;;;;
113;;;;;;;4798.05233288608;-0.288238525390625;-4.38629150390625E-05;-0.287445068359375;3;;;;;;;;;;
114;;;;;;;4798.29647388547;-0.290679931640625;-4.37713623046875E-05;-0.289886474609375;3;;;;;;;;;;
115;;;;;;;4798.54061488485;-0.293121337890625;-4.36767578125E-05;-0.29229736328125;3;;;;;;;;;;
116;;;;;;;4798.78475588423;-0.295562744140625;-4.35882568359375E-05;-0.2947998046875;3;;;;;;;;;;
117;;;;;;;4799.02889688362;-0.298004150390625;-4.35028076171875E-05;-0.29718017578125;3;;;;;;;;;;
118;;;;;;;4799.273037883;-0.300445556640625;-4.3414306640625E-05;-0.299652099609375;3;;;;;;;;;;
119;;;;;;;4799.51717888238;-0.302886962890625;-4.33258056640625E-05;-0.3021240234375;3;;;;;;;;;;
120;;;;;;;4799.76131988177;-0.305328369140625;-4.3255615234375E-05;-0.304534912109375;3;;;;;;;;;;
121;;;;;;;4800.00546088115;-0.307769775390625;-4.317626953125E-05;-0.306976318359375;3;;;;;;;;;;
122;;;;;;;4800.24960188054;-0.310211181640625;-4.30999755859375E-05;-0.309356689453125;3;;;;;;;;;;
123;;;;;;;4800.49374287992;-0.312652587890625;-4.302978515625E-05;-0.3118896484375;3;;;;;;;;;;
124;;;;;;;4800.7378838793;-0.315093994140625;-4.295654296875E-05;-0.314361572265625;3;;;;;;;;;;
125;;;;;;;4800.98202487869;-0.317535400390625;-4.28924560546875E-05;-0.316802978515625;3;;;;;;;;;;
126;;;;;;;4801.22616587807;-0.319976806640625;-4.28131103515625E-05;-0.319183349609375;3;;;;;;;;;;
