
Index;Column 2 (V);Column 3 (V);Column 4 (V);Column 5 (V);Column 6 (V/s);Column 7 (V);Time (s);Potential applied (V);WE(1).Current (A);WE(1).Potential (V);Scan;Column 13 (RPM);ω (rad/s);Frequency (Hz);Z' (Ω);-Z'' (Ω);Z (Ω);-Phase (°);Time (s);Y' (Mho);-Y'' (Mho)
1;0;0.01;-1;-0.01;0.01;-0.00244;15867.248193939;-0.0146484375;5.706787109375E-07;-0.01446533203125;3;1600;167.551608191456;100000;31.4538853352569;2.87950208069919;31.5854149080907;5.23066451892392;15250.4043664964;0.0315283415658477;0.00288631830923891
2;;;;;;;15867.4923349384;-0.01708984375;5.0628662109375E-07;-0.0167633056640625;3;;;79433;30.5834870954731;2.1146071556855;30.6565041441754;3.95525683990582;15252.3679144915;0.0325418128335745;0.00225000995020743
3;;;;;;;15867.7364759378;-0.01953125;4.2022705078125E-07;-0.019244384765625;3;;;63096;30.0330888862339;1.63056076896337;30.0773196357273;3.10765965735393;15254.2915144866;0.0331987505503652;0.00180243132603117
4;;;;;;;15867.9806169372;-0.02197265625;3.6865234375E-07;-0.021673583984375;3;;;50119;29.662369177089;1.30959459392422;29.6912644257255;2.52796891275192;15256.2062454818;0.0336471628637786;0.00148552336882541
5;;;;;;;15868.2247579366;-0.0244140625;2.923583984375E-07;-0.024151611328125;3;;;39811;29.4620090337622;1.10217092543562;29.4826178799367;2.14243053131999;15258.1349784769;0.0338945811134089;0.00126799302078173
6;;;;;;;15868.468898936;-0.02685546875;2.203369140625E-07;-0.02664794921875;3;;;31623;29.3369062800159;0.961242219254253;29.3526499091056;1.87666092364199;15259.9256814724;0.034050201316455;0.00111567630093903
7;;;;;;;15868.7130399354;-0.029296875;1.654052734375E-07;-0.029022216796875;3;;;25119;29.2833771995789;0.871959346973578;29.2963563146613;1.70556942635263;15261.7090214679;0.0341188153557076;0.00101594224444518
8;;;;;;;15868.9571809347;-0.03173828125;1.1566162109375E-07;-0.031524658203125;3;;;19953;29.2543730707346;0.816959174652415;29.2657780702097;1.59962923400261;15263.5087324633;0.0341562863391052;0.000953850264687497
9;;;;;;;15869.2013219341;-0.0341796875;4.21142578125E-08;-0.0339019775390625;3;;;15849;29.2851898513785;0.793842788565151;29.2959473477858;1.5527543415608;15265.3253774588;0.0341218799752469;0.000924952458498755
10;;;;;;;15869.4454629335;-0.03662109375;-2.13623046875E-08;-0.0363494873046875;3;;;12589;29.3133621872928;0.795385172960039;29.3241511436695;1.55427528255171;15267.1423324542;0.0340890372103719;0.000924967753080425
11;;;;;;;15869.6896039329;-0.0390625;-6.988525390625E-08;-0.03876953125;3;;;10000;29.3749966105842;0.815899601506495;29.3863253577505;1.59099891756221;15270.4227884459;0.0340163146287967;0.000944813642645823
12;;;;;;;15869.9337449323;-0.04150390625;-1.1993408203125E-07;-0.041259765625;3;;;7943.3;29.3920452254969;0.855135453311451;29.4044822974519;1.66649971518528;15272.1743004415;0.0339940361715932;0.000989026292946233
13;;;;;;;15870.1778859317;-0.0439453125;-1.7333984375E-07;-0.0436676025390625;3;;;6309.6;29.4723520525306;0.912446690928845;29.4864730761767;1.77327723740536;15273.9859044369;0.0338976146471019;0.00104945021897136
14;;;;;;;15870.422026931;-0.04638671875;-2.3406982421875E-07;-0.0460479736328125;3;;;5011.9;29.5532996761035;0.987843974020564;29.5698048262512;1.91444698395573;15275.8023734323;0.0337994055100975;0.00112977364370669
15;;;;;;;15870.6661679304;-0.048828125;-2.911376953125E-07;-0.0484283447265625;3;;;3981.1;29.6700798335155;1.08153546958227;29.6897853865458;2.08762475716033;15277.6081674277;0.033659262675229;0.00122694939371632
16;;;;;;;15870.9103089298;-0.05126953125;-3.5797119140625E-07;-0.050994873046875;3;;;3162.3;29.7703367959438;1.19622660616557;29.794360389799;2.30101140471227;15279.4424484231;0.0335363361879966;0.00134755135275663
17;;;;;;;15871.1544499292;-0.0537109375;-4.107666015625E-07;-0.05340576171875;3;;;2511.9;29.8755377672445;1.33685457383924;29.9054332360133;2.56213170509239;15281.2565584185;0.0334053121824094;0.00149480303014143
18;;;;;;;15871.3985909286;-0.05615234375;-5.1239013671875E-07;-0.055755615234375;3;;;1995.3;30.0148010934551;1.50120312560098;30.0523193032416;2.8632869852392;15283.1048774139;0.0332337601022326;0.00166220073841581
19;;;;;;;15871.642731928;-0.05859375;-5.5145263671875E-07;-0.058349609375;3;;;1584.9;30.1742537487104;1.69542235212659;30.221847167962;3.21593743890393;15284.8755664094;0.0330365378612816;0.00185624755440015
20;;;;;;;15871.8868729273;-0.06103515625;-6.3385009765625E-07;-0.060760498046875;3;;;1258.9;30.3528070451431;1.92188909643409;30.4135915869646;3.62303648329656;15286.6516724049;0.0328143224780125;0.00207774814644221
21;;;;;;;15872.1310139267;-0.0634765625;-7.110595703125E-07;-0.063232421875;3;;;1000;30.5455332481969;2.18497190645517;30.6235808430154;4.09149181579619;15288.4479084004;0.0325713506241805;0.00232988193366493
22;;;;;;;15872.3751549261;-0.06591796875;-8.050537109375E-07;-0.065582275390625;3;;;794.33;30.7945295140583;2.48594652492066;30.8947079305983;4.6153016077743;15290.3748353955;0.032263047346125;0.00260449539899076
23;;;;;;;15872.6192959255;-0.068359375;-8.416748046875E-07;-0.0679931640625;3;;;630.96;31.0651472549298;2.82879104247182;31.1936761657301;5.20300205560908;15292.1876463909;0.0319256904250552;0.0029071520684581
24;;;;;;;15872.8634369249;-0.07080078125;-9.3963623046875E-07;-0.070343017578125;3;;;501.19;31.3753224711028;3.21507657520708;31.5396191725603;5.85076342718885;15294.0021943864;0.0315409890701861;0.00323205268126933
25;;;;;;;15873.1075779243;-0.0732421875;-1.0064697265625E-06;-0.072845458984375;3;;;398.11;31.7484413986809;3.64327609778612;31.9567988379652;6.5463127470755;15295.7804033819;0.0310882210968795;0.00356751285591164
26;;;;;;;15873.3517189236;-0.07568359375;-1.1444091796875E-06;-0.0753173828125;3;;;316.23;32.1126215519723;4.12406749444394;32.3763555027264;7.31816034723246;15297.5846393773;0.0306351379962368;0.00393432148146512
27;;;;;;;15873.595859923;-0.078125;-1.19171142578125E-06;-0.07769775390625;3;;;251.19;32.543408280943;4.66932789658739;32.8766793570457;8.16507208604713;15299.4371413726;0.0301083629478567;0.00431994761640657
28;;;;;;;15873.8400009224;-0.08056640625;-1.304931640625E-06;-0.080108642578125;3;;;199.53;32.9654027015817;5.31588738346952;33.3912628385208;9.16046153683256;15301.2379023681;0.0295660084803416;0.00476771277096092
29;;;;;;;15874.0841419218;-0.0830078125;-1.40625E-06;-0.082611083984375;3;;;158.49;33.3758852495981;6.07138049024588;33.9236109111586;10.3098943093903;15303.0844663634;0.0290020466510377;0.005275739022276
30;;;;;;;15874.3282829212;-0.08544921875;-1.5008544921875E-06;-0.084869384765625;3;;;125.89;33.8142438245287;6.98701979934304;34.5285610922478;11.6746947458162;15304.9559423587;0.0283623831162478;0.00586050462692961
31;;;;;;;15874.5724239206;-0.087890625;-1.6070556640625E-06;-0.087493896484375;3;;;100;34.2223962182042;8.1231790749927;35.1732631582592;13.3528645911066;15306.818334354;0.0276620965258139;0.00656599737307088
32;;;;;;;15874.8165649199;-0.09033203125;-1.75750732421875E-06;-0.08984375;3;;;79.433;34.6420871214521;9.52623520682658;35.9280302458409;15.3757303659252;15308.7337363492;0.0268372019488991;0.00737996810532821
33;;;;;;;15875.0607059193;-0.0927734375;-1.8719482421875E-06;-0.09228515625;3;;;63.096;35.0215383841448;11.2957951496259;36.7981404265819;17.8765104447012;15310.7040563442;0.0258632724341609;0.00834190160668415
34;;;;;;;15875.3048469187;-0.09521484375;-2.00958251953125E-06;-0.09466552734375;3;;;50.119;35.3813947640891;13.5269731426638;37.8790456301985;20.9227961464468;15321.6294183166;0.0246590813014319;0.00942763089785783
35;;;;;;;15875.5489879181;-0.09765625;-2.14996337890625E-06;-0.09698486328125;3;;;39.811;35.7333277934072;16.350271097731;39.2963367269824;24.5871092464517;15331.1353392926;0.0231403183899971;0.0105881680304645
36;;;;;;;15875.7931289175;-0.10009765625;-2.3028564453125E-06;-0.09967041015625;3;;;31.623;36.0794201937851;19.9301307487551;41.2181352462988;28.9160890150124;15333.2370732873;0.0212364964723492;0.0117309576779813
37;;;;;;;15876.0372699169;-0.1025390625;-2.4945068359375E-06;-0.10198974609375;3;;;25.119;36.3992420279093;24.4460782453908;43.8464999947098;33.8856860899716;15335.3918022819;0.0189331325849415;0.0127156724924918
38;;;;;;;15876.2814109162;-0.10498046875;-2.6409912109375E-06;-0.104278564453125;3;;;19.953;36.7517073261282;30.1626165869135;47.5444153476992;39.3761829421775;15337.7816822758;0.0162584259310283;0.0133435071005721
39;;;;;;;15876.5255519156;-0.107421875;-2.845458984375E-06;-0.10675048828125;3;;;15.849;37.1067840264462;37.3439515249686;52.644887085875;45.1825186902113;15340.2237832697;0.0133887773488005;0.0134743515346374
40;;;;;;;15876.769692915;-0.10986328125;-3.05816650390625E-06;-0.109222412109375;3;;;12.589;37.4908233294844;46.4044029997398;59.6567720521725;51.0647278670941;15342.7656922632;0.0105342950188126;0.0130388619923075
41;;;;;;;15877.0138339144;-0.1123046875;-3.2659912109375E-06;-0.1119384765625;3;;;10;37.8795354801739;57.9610067906909;69.2411547880613;56.8339865029457;15345.5546412562;0.0079008904464326;0.0120894715052108
42;;;;;;;15877.2579749138;-0.11474609375;-3.489990234375E-06;-0.114410400390625;3;;;7.9433;38.3668420544185;72.3470557533854;81.8908483617806;62.0622519349057;15348.3450212492;0.00572117607278013;0.0107882281196164
43;;;;;;;15877.5021159132;-0.1171875;-3.7353515625E-06;-0.11676025390625;3;;;6.3096;38.9490719701418;90.4565336371799;98.4856064863772;66.7040961415827;15351.2715962418;0.00401561055332731;0.00932597858478688
44;;;;;;;15877.7462569125;-0.11962890625;-3.9886474609375E-06;-0.11920166015625;3;;;5.0119;39.7639055342216;113.255307842993;120.033049357023;70.6538406228691;15354.1287082346;0.00275986192505776;0.00786062152917974
45;;;;;;;15877.9903979119;-0.1220703125;-4.26025390625E-06;-0.12158203125;3;;;3.9811;40.7493473559407;141.862640348736;147.599180338679;73.9735476512665;15357.6142672258;0.00187047869540618;0.00651178641288583
46;;;;;;;15878.2345389113;-0.12451171875;-4.547119140625E-06;-0.124114990234375;3;;;3.1623;42.0634691111305;177.592291449243;182.505773650742;76.674815932108;15360.6534882181;0.0012628502986793;0.00533176371419333
47;;;;;;;15878.4786799107;-0.126953125;-4.840087890625E-06;-0.126556396484375;3;;;2.5119;43.7952330291636;222.473323007063;226.74303051226;78.8633752466787;15363.8883152099;0.000851841801252014;0.00432723068455099
48;;;;;;;15878.7228209101;-0.12939453125;-5.21240234375E-06;-0.1290283203125;3;;;1.9953;46.1166343332861;278.627077188191;282.417761666409;80.6019573206745;15367.0483742019;0.000578194013755323;0.00349332752551015
49;;;;;;;15878.9669619095;-0.1318359375;-5.5511474609375E-06;-0.13140869140625;3;;;1.5849;49.2119707225111;349.092097265562;352.543770950022;81.9758146733253;15370.2880881938;0.000395953937218502;0.00280875543764671
50;;;;;;;15879.2111029088;-0.13427734375;-5.9295654296875E-06;-0.133880615234375;3;;;1.2589;53.38002361856;437.020935036651;440.268923025265;83.0360895722086;15373.7235541851;0.000275386533350268;0.00225458274730682
51;;;;;;;15879.4552439082;-0.13671875;-6.3446044921875E-06;-0.136260986328125;3;;;1;58.8531899175685;547.442923740125;550.597359888884;83.8639484412353;15379.8339091697;0.000194134069244157;0.00180580394390592
52;;;;;;;15879.6993849076;-0.13916015625;-6.7626953125E-06;-0.138702392578125;3;;;0.79433;65.904600825738;685.250986426361;688.412907206352;84.5064258744;15383.5339211603;0.000139064963161713;0.00144594462283267
53;;;;;;;15879.943525907;-0.1416015625;-7.2235107421875E-06;-0.14111328125;3;;;0.63096;75.7527005647595;857.254969061403;860.595464561208;84.9500842869098;15387.4983501503;0.000102282188990573;0.00115747576132535
54;;;;;;;15880.1876669064;-0.14404296875;-7.75146484375E-06;-0.143585205078125;3;;;0.50119;88.6340178543405;1072.64663582796;1076.30237130374;85.2763156855601;15391.8967081392;7.65124030945628E-05;0.000925951161475826
55;;;;;;;15880.4318079058;-0.146484375;-8.2489013671875E-06;-0.146026611328125;3;;;0.39811;105.681640177762;1341.29258835167;1345.4495221441;85.4949215270994;15396.6170751273;5.83800855880579E-05;0.000740949667083946
56;;;;;;;15880.6759489051;-0.14892578125;-8.80126953125E-06;-0.1484375;3;;;0.31623;128.899009709886;1677.14766078483;1682.09370451833;85.6051102185012;15401.9133581139;4.55563803271163E-05;0.000592749136486088
57;;;;;;;15880.9200899045;-0.1513671875;-9.393310546875E-06;-0.150909423828125;3;;;0.25119;158.60730344652;2092.63354768008;2098.63561429389;85.6656589891915;15407.8823430988;3.60121544619247E-05;0.000475137278761384
58;;;;;;;15881.1642309039;-0.15380859375;-1.0028076171875E-05;-0.153350830078125;3;;;0.19953;198.547086554069;2613.18475007494;2620.71659734572;85.6550736398797;15414.5802800819;2.89083564034143E-05;0.0003804783913692
59;;;;;;;15881.4083719033;-0.15625;-1.06719970703125E-05;-0.155670166015625;3;;;0.15849;249.415311812412;3260.35024882209;3269.87641093066;85.6254192503354;15422.4158620621;2.33270830266942E-05;0.000304931002021149
60;;;;;;;15881.6525129027;-0.15869140625;-1.13800048828125E-05;-0.158172607421875;3;;;0.12589;318.561770854327;4072.66839395405;4085.10825425253;85.5274637724645;15431.5052910392;1.90891467861352E-05;0.000244046121965442
61;;;;;;;15881.8966539021;-0.1611328125;-1.214599609375E-05;-0.16058349609375;3;;;0.1;411.735518493166;5068.9748819225;5085.66932573777;85.3562543657783;15442.2430430121;1.59192314129832E-05;0.000195985482299999
62;;;;;;;15882.1407949014;-0.16357421875;-1.29730224609375E-05;-0.163055419921875;3;;;;;;;;;;
63;;;;;;;15882.3849359008;-0.166015625;-1.38031005859375E-05;-0.165435791015625;3;;;;;;;;;;
64;;;;;;;15882.6290769002;-0.16845703125;-1.47216796875E-05;-0.1678466796875;3;;;;;;;;;;
65;;;;;;;15882.8732178996;-0.1708984375;-1.5667724609375E-05;-0.17022705078125;3;;;;;;;;;;
66;;;;;;;15883.117358899;-0.17333984375;-1.67083740234375E-05;-0.172698974609375;3;;;;;;;;;;
67;;;;;;;15883.3614998984;-0.17578125;-1.77947998046875E-05;-0.175140380859375;3;;;;;;;;;;
68;;;;;;;15883.6056408978;-0.17822265625;-1.89910888671875E-05;-0.177520751953125;3;;;;;;;;;;
69;;;;;;;15883.8497818971;-0.1806640625;-2.02178955078125E-05;-0.179931640625;3;;;;;;;;;;
70;;;;;;;15884.0939228965;-0.18310546875;-2.15545654296875E-05;-0.182403564453125;3;;;;;;;;;;
71;;;;;;;15884.3380638959;-0.185546875;-2.2955322265625E-05;-0.18487548828125;3;;;;;;;;;;
72;;;;;;;15884.5822048953;-0.18798828125;-2.44232177734375E-05;-0.187255859375;3;;;;;;;;;;
73;;;;;;;15884.8263458947;-0.1904296875;-2.6031494140625E-05;-0.189544677734375;3;;;;;;;;;;
74;;;;;;;15885.0704868941;-0.19287109375;-2.76947021484375E-05;-0.192047119140625;3;;;;;;;;;;
75;;;;;;;15885.3146278934;-0.1953125;-2.95318603515625E-05;-0.1944580078125;3;;;;;;;;;;
76;;;;;;;15885.5587688928;-0.19775390625;-3.1304931640625E-05;-0.19683837890625;3;;;;;;;;;;
77;;;;;;;15885.8029098922;-0.2001953125;-3.34320068359375E-05;-0.199676513671875;3;;;;;;;;;;
78;;;;;;;15886.0470508916;-0.20263671875;-3.5565185546875E-05;-0.202056884765625;3;;;;;;;;;;
79;;;;;;;15886.291191891;-0.205078125;-3.7933349609375E-05;-0.2044677734375;3;;;;;;;;;;
80;;;;;;;15886.5353328904;-0.20751953125;-4.0338134765625E-05;-0.20697021484375;3;;;;;;;;;;
81;;;;;;;15886.7794738897;-0.2099609375;-4.3017578125E-05;-0.2093505859375;3;;;;;;;;;;
82;;;;;;;15887.0236148891;-0.21240234375;-4.5721435546875E-05;-0.2117919921875;3;;;;;;;;;;
83;;;;;;;15887.2677558885;-0.21484375;-4.8736572265625E-05;-0.21429443359375;3;;;;;;;;;;
84;;;;;;;15887.5118968879;-0.21728515625;-5.1788330078125E-05;-0.216705322265625;3;;;;;;;;;;
85;;;;;;;15887.7560378873;-0.2197265625;-5.5267333984375E-05;-0.2191162109375;3;;;;;;;;;;
86;;;;;;;15888.0001788867;-0.22216796875;-5.87158203125E-05;-0.2215576171875;3;;;;;;;;;;
87;;;;;;;15888.244319886;-0.224609375;-6.2652587890625E-05;-0.224029541015625;3;;;;;;;;;;
88;;;;;;;15888.4884608854;-0.22705078125;-6.65283203125E-05;-0.226409912109375;3;;;;;;;;;;
89;;;;;;;15888.7326018848;-0.2294921875;-7.1044921875E-05;-0.2288818359375;3;;;;;;;;;;
90;;;;;;;15888.9767428842;-0.23193359375;-7.537841796875E-05;-0.231292724609375;3;;;;;;;;;;
91;;;;;;;15889.2208838836;-0.234375;-8.0474853515625E-05;-0.233734130859375;3;;;;;;;;;;
92;;;;;;;15889.465024883;-0.23681640625;-8.5418701171875E-05;-0.23614501953125;3;;;;;;;;;;
93;;;;;;;15889.7091658823;-0.2392578125;-9.112548828125E-05;-0.238616943359375;3;;;;;;;;;;
94;;;;;;;15889.9533068817;-0.24169921875;-9.6771240234375E-05;-0.240997314453125;3;;;;;;;;;;
95;;;;;;;15890.1974478811;-0.244140625;-0.000103179931640625;-0.243499755859375;3;;;;;;;;;;
96;;;;;;;15890.4415888805;-0.24658203125;-0.000109527587890625;-0.245880126953125;3;;;;;;;;;;
97;;;;;;;15890.6857298799;-0.2490234375;-0.000116729736328125;-0.248321533203125;3;;;;;;;;;;
98;;;;;;;15890.9298708793;-0.25146484375;-0.0001239013671875;-0.250762939453125;3;;;;;;;;;;
99;;;;;;;15891.1740118786;-0.25390625;-0.0001319580078125;-0.253143310546875;3;;;;;;;;;;
100;;;;;;;15891.418152878;-0.25634765625;-0.00013995361328125;-0.255615234375;3;;;;;;;;;;
101;;;;;;;15891.6622938774;-0.2587890625;-0.000148895263671875;-0.258026123046875;3;;;;;;;;;;
102;;;;;;;15891.9064348768;-0.26123046875;-0.00015789794921875;-0.260498046875;3;;;;;;;;;;
103;;;;;;;15892.1505758762;-0.263671875;-0.00016778564453125;-0.26287841796875;3;;;;;;;;;;
104;;;;;;;15892.3947168756;-0.26611328125;-0.00017779541015625;-0.265350341796875;3;;;;;;;;;;
105;;;;;;;15892.6388578749;-0.2685546875;-0.000188629150390625;-0.267730712890625;3;;;;;;;;;;
106;;;;;;;15892.8829988743;-0.27099609375;-0.000199737548828125;-0.270111083984375;3;;;;;;;;;;
107;;;;;;;15893.1271398737;-0.2734375;-0.000211517333984375;-0.272613525390625;3;;;;;;;;;;
108;;;;;;;15893.3712808731;-0.27587890625;-0.00022369384765625;-0.274932861328125;3;;;;;;;;;;
109;;;;;;;15893.6154218725;-0.2783203125;-0.0002364501953125;-0.277374267578125;3;;;;;;;;;;
110;;;;;;;15893.8595628719;-0.28076171875;-0.000249908447265625;-0.27978515625;3;;;;;;;;;;
111;;;;;;;15894.1037038712;-0.283203125;-0.000263580322265625;-0.282196044921875;3;;;;;;;;;;
112;;;;;;;15894.3478448706;-0.28564453125;-0.000278228759765625;-0.284576416015625;3;;;;;;;;;;
113;;;;;;;15894.59198587;-0.2880859375;-0.00029278564453125;-0.287017822265625;3;;;;;;;;;;
114;;;;;;;15894.8361268694;-0.29052734375;-0.000308624267578125;-0.289459228515625;3;;;;;;;;;;
115;;;;;;;15895.0802678688;-0.29296875;-0.000324127197265625;-0.29229736328125;3;;;;;;;;;;
116;;;;;;;15895.3244088682;-0.29541015625;-0.000341033935546875;-0.294647216796875;3;;;;;;;;;;
117;;;;;;;15895.5685498675;-0.2978515625;-0.00035711669921875;-0.297149658203125;3;;;;;;;;;;
118;;;;;;;15895.8126908669;-0.30029296875;-0.000375091552734375;-0.299560546875;3;;;;;;;;;;
119;;;;;;;15896.0568318663;-0.302734375;-0.0003919677734375;-0.302001953125;3;;;;;;;;;;
120;;;;;;;15896.3009728657;-0.30517578125;-0.000410858154296875;-0.304412841796875;3;;;;;;;;;;
121;;;;;;;15896.5451138651;-0.3076171875;-0.0004283447265625;-0.306915283203125;3;;;;;;;;;;
122;;;;;;;15896.7892548645;-0.31005859375;-0.000447967529296875;-0.309295654296875;3;;;;;;;;;;
123;;;;;;;15897.0333958638;-0.3125;-0.000465972900390625;-0.311767578125;3;;;;;;;;;;
124;;;;;;;15897.2775368632;-0.31494140625;-0.00048638916015625;-0.314178466796875;3;;;;;;;;;;
125;;;;;;;15897.5216778626;-0.3173828125;-0.00050445556640625;-0.316650390625;3;;;;;;;;;;
126;;;;;;;15897.765818862;-0.31982421875;-0.00052520751953125;-0.319091796875;3;;;;;;;;;;
127;;;;;;;15898.0099598614;-0.322265625;-0.0005438232421875;-0.321533203125;3;;;;;;;;;;
128;;;;;;;15898.2541008608;-0.32470703125;-0.00056488037109375;-0.323944091796875;3;;;;;;;;;;
129;;;;;;;15898.4982418602;-0.3271484375;-0.00058380126953125;-0.326385498046875;3;;;;;;;;;;
130;;;;;;;15898.7423828595;-0.32958984375;-0.0006048583984375;-0.328826904296875;3;;;;;;;;;;
131;;;;;;;15898.9865238589;-0.33203125;-0.000623779296875;-0.331268310546875;3;;;;;;;;;;
132;;;;;;;15899.2306648583;-0.33447265625;-0.00064453125;-0.333709716796875;3;;;;;;;;;;
133;;;;;;;15899.4748058577;-0.3369140625;-0.0006634521484375;-0.33612060546875;3;;;;;;;;;;
134;;;;;;;15899.7189468571;-0.33935546875;-0.00068389892578125;-0.338531494140625;3;;;;;;;;;;
