
Index;Column 2 (V);Column 3 (V);Column 4 (V);Column 5 (V);Column 6 (V/s);Column 7 (V);Time (s);Potential applied (V);WE(1).Current (A);WE(1).Potential (V);Scan;Column 13 (RPM);ω (rad/s);Frequency (Hz);Z' (Ω);-Z'' (Ω);Z (Ω);-Phase (°);Time (s);Y' (Mho);-Y'' (Mho)
1;0.1;0.11;-0.9;-0.01;0.01;-0.00244;14971.5790392004;-0.014801025390625;-1.0162353515625E-06;-0.0144683837890625;3;1600;167.551608191456;100000;39.1431335877898;5.77809242925311;39.5673003778695;8.39704520063263;14355.1337487568;0.0250024605127064;0.00369072464464708
2;;;;;;;14971.8231801998;-0.017242431640625;-1.3763427734375E-06;-0.0169158935546875;3;;;79433;38.2949385135396;4.2762376355085;38.5329537418443;6.37158756245959;14356.8587637524;0.0257915103011029;0.00288003144298527
3;;;;;;;14972.0673211992;-0.019683837890625;-1.86981201171875E-06;-0.0193634033203125;3;;;63096;37.7064688558671;3.30225816992436;37.8507952703679;5.00508125094218;14358.7481797476;0.0263187855813827;0.00230494732988197
4;;;;;;;14972.3114621985;-0.022125244140625;-2.45758056640625E-06;-0.0217864990234375;3;;;50119;37.3249506112684;2.66181812312791;37.419743636939;4.07912620816693;14360.6568597428;0.0266561624287425;0.00190097656082222
5;;;;;;;14972.5556031979;-0.024566650390625;-3.22723388671875E-06;-0.02421875;3;;;39811;37.0897428163943;2.23196004754477;37.1568387761945;3.44375153703864;14362.5448247381;0.0268643480695807;0.00161662354714784
6;;;;;;;14972.7997441973;-0.027008056640625;-4.15771484375E-06;-0.026678466796875;3;;;31623;36.9542033772746;1.94223576935767;37.0052081068698;3.00857834277271;14364.3628867335;0.0269859768095743;0.00141832659455578
7;;;;;;;14973.0438851967;-0.029449462890625;-5.3466796875E-06;-0.029107666015625;3;;;25119;36.9283926983692;1.75029565170515;36.9698488251351;2.71361821687754;14366.1829827289;0.0270187377579513;0.00128060756931867
8;;;;;;;14973.2880261961;-0.031890869140625;-6.8023681640625E-06;-0.031536865234375;3;;;19953;36.9497036514317;1.63039981361655;36.9856567263698;2.52652831647135;14367.9877027243;0.0270112256172639;0.0011918660465423
9;;;;;;;14973.5321671955;-0.034332275390625;-8.6395263671875E-06;-0.033984375;3;;;15849;37.0245944529652;1.57383123055976;37.0580293478866;2.43404783724739;14369.7756667198;0.0269603588424932;0.00114602348412801
10;;;;;;;14973.7763081948;-0.036773681640625;-1.08673095703125E-05;-0.03641357421875;3;;;12589;37.0718022219697;1.56209173428708;37.1046984972411;2.41284059970349;14371.5820797152;0.0269268707384479;0.00113461552149248
11;;;;;;;14974.0204491942;-0.039215087890625;-1.35772705078125E-05;-0.0388458251953125;3;;;10000;37.1717880299502;1.59674814815316;37.2060671126656;2.45968047310237;14374.829543707;0.0268525739772587;0.00115347687167447
12;;;;;;;14974.2645901936;-0.041656494140625;-1.68609619140625E-05;-0.0412872314453125;3;;;7943.3;37.2819346091843;1.68056642178243;37.3197930286533;2.58098794912861;14376.5691647027;0.0267682504697844;0.00120663864096525
13;;;;;;;14974.508731193;-0.044097900390625;-2.08251953125E-05;-0.0436981201171875;3;;;6309.6;37.4009279651285;1.81045062478793;37.4447211782585;2.77132890403307;14378.3607676981;0.0266748002262469;0.00129123557524372
14;;;;;;;14974.7528721924;-0.046539306640625;-2.5494384765625E-05;-0.046136474609375;3;;;5011.9;37.537603506541;1.98957785152459;37.5902925905287;3.0339669279618;14380.2013526935;0.0265653248187233;0.00140802227474853
15;;;;;;;14974.9970131918;-0.048980712890625;-3.10028076171875E-05;-0.048553466796875;3;;;3981.1;37.6714254130023;2.2263300004992;37.7371546081381;3.38216871872559;14381.992715689;0.0264529280745935;0.00156333206741862
16;;;;;;;14975.2411541912;-0.051422119140625;-3.739013671875E-05;-0.05108642578125;3;;;3162.3;37.8139957219851;2.53218524866826;37.8986838108645;3.83104839719446;14383.7862996844;0.0263271783568571;0.00176297932554989
17;;;;;;;14975.4852951905;-0.053863525390625;-4.47021484375E-05;-0.05352783203125;3;;;2511.9;37.9861131475238;2.92051036022494;38.0982174493855;4.39645863869637;14385.5842616799;0.0261707124100631;0.00201209943305397
18;;;;;;;14975.7294361899;-0.056304931640625;-5.3009033203125E-05;-0.055999755859375;3;;;1995.3;38.2073471894797;3.40521815888034;38.3587915603061;5.09301235250418;14387.4100716753;0.0259667173758511;0.00231427576210024
19;;;;;;;14975.9735771893;-0.058746337890625;-6.2286376953125E-05;-0.05841064453125;3;;;1584.9;38.4261155233745;4.00109056293034;38.633859241713;5.94445898770318;14389.1716646708;0.025744845964955;0.00268066284690727
20;;;;;;;14976.2177181887;-0.061187744140625;-7.26318359375E-05;-0.060760498046875;3;;;1258.9;38.6978280889683;4.73080869991043;38.9859263037123;6.96982371685232;14390.9593576663;0.0254607314404403;0.00311257390279366
21;;;;;;;14976.4618591881;-0.063629150390625;-8.3953857421875E-05;-0.063232421875;3;;;1000;39.0326771683086;5.61701136275385;39.4347651644422;8.18895080796238;14392.7604886618;0.0250997746181866;0.00361199204002804
22;;;;;;;14976.7060001875;-0.066070556640625;-9.6343994140625E-05;-0.065643310546875;3;;;794.33;39.4194421099325;6.6883884571554;39.9828332714445;9.62979736473906;14394.6889416569;0.0246583119043628;0.00418383315152301
23;;;;;;;14976.9501411868;-0.068511962890625;-0.000109588623046875;-0.068084716796875;3;;;630.96;39.9281682652478;7.9730194270991;40.7164298508948;11.2925265579622;14396.4676096524;0.0240846314929963;0.00480931741001795
24;;;;;;;14977.1942821862;-0.070953369140625;-0.000123931884765625;-0.070465087890625;3;;;501.19;40.5249887862497;9.49341006160318;41.6221041121592;13.1843997365607;14398.2750186479;0.0233924031955142;0.00547991948949589
25;;;;;;;14977.4384231856;-0.073394775390625;-0.000138946533203125;-0.072906494140625;3;;;398.11;41.2217124837875;11.2907894904173;42.7400457114046;15.3178506399398;14400.0642696433;0.0225660769730229;0.00618093740834188
26;;;;;;;14977.682564185;-0.075836181640625;-0.000154998779296875;-0.075347900390625;3;;;316.23;42.0495966992555;13.4125999341691;44.1369054144501;17.691172307594;14401.8825336387;0.0215852992880316;0.00688508348558785
27;;;;;;;14977.9267051844;-0.078277587890625;-0.00017156982421875;-0.077728271484375;3;;;251.19;43.0130447712039;15.9255829328098;45.8666132632375;20.3170754483518;14403.7162576341;0.0204459285635112;0.00757010652718295
28;;;;;;;14978.1708461838;-0.080718994140625;-0.0001890869140625;-0.0802001953125;3;;;199.53;44.0229933626263;18.8739205656529;47.8983175291619;23.2062026486931;14405.5335136295;0.0191884127554492;0.00822662319084296
29;;;;;;;14978.4149871831;-0.083160400390625;-0.0002069091796875;-0.08258056640625;3;;;158.49;45.1530317528598;22.4369922843181;50.4203817839703;26.423240285212;14407.3776836249;0.0177612961698616;0.00882576539497666
30;;;;;;;14978.6591281825;-0.085601806640625;-0.000225616455078125;-0.084991455078125;3;;;125.89;46.2763992660108;26.7512743970055;53.4521824707946;30.0311748987824;14409.2435266202;0.0161967796874092;0.00936296912979502
31;;;;;;;14978.9032691819;-0.088043212890625;-0.0002445068359375;-0.08734130859375;3;;;100;47.4086993390587;32.0669794890054;57.2352683803401;34.0742009873121;14411.0300916156;0.0144720679635944;0.00978882595434829
32;;;;;;;14979.1474101813;-0.090484619140625;-0.000264190673828125;-0.089752197265625;3;;;79.433;48.577295940103;38.7093186545319;62.1141290814775;38.5499501869605;14412.9282476109;0.0125907771033272;0.0100330904297726
33;;;;;;;14979.3915511807;-0.092926025390625;-0.0002838134765625;-0.0921630859375;3;;;63.096;49.8053572128951;47.0611341901819;68.5224339787372;43.3772473738898;14414.8829306059;0.0106074378795752;0.010022979161275
34;;;;;;;14979.6356921801;-0.095367431640625;-0.00030419921875;-0.0946044921875;3;;;50.119;51.1584227122872;57.5137542668568;76.974126459983;48.3469413239661;14416.8536826009;0.00863430942069203;0.00970693629626736
35;;;;;;;14979.8798331794;-0.097808837890625;-0.000324462890625;-0.097412109375;3;;;39.811;52.7074984684593;70.5826219974443;88.0907879567254;53.2495024362909;14426.4818625766;0.00679221485713426;0.00909571403912135
36;;;;;;;14980.1239741788;-0.100250244140625;-0.00034527587890625;-0.099853515625;3;;;31.623;54.551077954418;86.9192424998881;102.619563547812;57.8873526799827;14428.5837695713;0.0051801580484471;0.00825383164704732
37;;;;;;;14980.3681151782;-0.102691650390625;-0.00036566162109375;-0.102294921875;3;;;25.119;56.7646238431246;107.185726497049;121.288921525223;62.0946967197688;14430.7558355658;0.00385865095882914;0.00728609261049002
38;;;;;;;14980.6122561776;-0.105133056640625;-0.000386566162109375;-0.10467529296875;3;;;19.953;59.4784396401146;132.379047302664;145.127175080285;65.8054242796576;14433.1382785598;0.00282398303393072;0.00628523858212492
39;;;;;;;14980.856397177;-0.107574462890625;-0.000406951904296875;-0.10711669921875;3;;;15.849;62.7438286504991;163.765382673692;175.373568692616;69.0365435190605;14435.5780805537;0.00204005904282968;0.00532468382965454
40;;;;;;;14981.1005381764;-0.110015869140625;-0.000427703857421875;-0.109588623046875;3;;;12.589;66.6949812921642;202.611252219432;213.306211947726;71.7796397051307;14438.1669035471;0.00146583858234231;0.00445303956858334
41;;;;;;;14981.3446791757;-0.112457275390625;-0.000447845458984375;-0.11199951171875;3;;;10;71.3939517825508;250.905791017376;260.865506185053;74.1165698269691;14440.9203015402;0.00104912710593056;0.00368703594378721
42;;;;;;;14981.5888201751;-0.114898681640625;-0.0004681396484375;-0.114410400390625;3;;;7.9433;77.0055281762397;311.105303368337;320.493933099531;76.0974404407714;14443.7118535331;0.000749690967547831;0.00302878041895484
43;;;;;;;14981.8329611745;-0.117340087890625;-0.000487457275390625;-0.116943359375;3;;;6.3096;83.9942982177322;386.194055601464;395.222583761349;77.7296917104586;14446.6061655258;0.000537732517614051;0.00247241903572825
44;;;;;;;14982.0771021739;-0.119781494140625;-0.000506591796875;-0.11932373046875;3;;;5.0119;92.2932622499605;478.923109838812;487.73496019295;79.0922473128673;14449.5026085185;0.000387973644404824;0.00201325145285928
45;;;;;;;14982.3212431733;-0.122222900390625;-0.00052520751953125;-0.121795654296875;3;;;3.9811;102.71257064204;595.271368423271;604.067772880171;80.2101549267329;14452.4189535111;0.000281483061138965;0.00163133690399121
46;;;;;;;14982.5653841727;-0.124664306640625;-0.00054351806640625;-0.1241455078125;3;;;3.1623;115.818775518176;739.666481822223;748.679165660295;81.100748854635;14455.4471775035;0.000206627191949601;0.00131960649242213
47;;;;;;;14982.809525172;-0.127105712890625;-0.0005609130859375;-0.12664794921875;3;;;2.5119;132.662668410955;919.166744550753;928.69095391198;81.7872548038282;14458.4886664958;0.000153817694656504;0.001065741488131
48;;;;;;;14983.0536661714;-0.129547119140625;-0.00057769775390625;-0.129119873046875;3;;;1.9953;153.575617746754;1143.55621143283;1153.82246427815;82.3511410067925;14461.6717464878;0.000115357089620055;0.000858973047305977
49;;;;;;;14983.2978071708;-0.131988525390625;-0.0005938720703125;-0.131591796875;3;;;1.5849;180.900429452241;1421.00566991083;1432.47411121274;82.7450134477085;14464.9453304795;8.81588739383227E-05;0.000692503937655846
50;;;;;;;14983.5419481702;-0.134429931640625;-0.0006085205078125;-0.133941650390625;3;;;1.2589;215.003745797525;1765.78822525642;1778.82957788575;83.0577944471426;14468.3703474709;6.79481038586865E-05;0.000558045913465896
51;;;;;;;14983.7860891696;-0.136871337890625;-0.00062255859375;-0.136383056640625;3;;;1;260.450815992622;2197.5747357446;2212.9548903523;83.2409827914443;14474.4875974554;5.31839512893939E-05;0.000448743872255536
52;;;;;;;14984.030230169;-0.139312744140625;-0.0006353759765625;-0.1387939453125;3;;;0.79433;319.086715070054;2730.70140941676;2749.2810913264;83.3351239168383;14478.1616794462;4.22153537406551E-05;0.000361273348322651
53;;;;;;;14984.2743711683;-0.141754150390625;-0.00064727783203125;-0.141265869140625;3;;;0.63096;394.915399244188;3390.0553210166;3412.98011305562;83.3554305070174;14482.171548436;3.39028769532199E-05;0.000291031012295289
54;;;;;;;14984.5185121677;-0.144195556640625;-0.000657958984375;-0.143646240234375;3;;;0.50119;492.947714024406;4213.22385161445;4241.96330401086;83.3267265252984;14486.5044574251;2.73947311396662E-05;0.000234142752593214
55;;;;;;;14984.7626531671;-0.146636962890625;-0.0006683349609375;-0.1461181640625;3;;;0.39811;631.019788185199;5229.06538637304;5267.00206835406;83.1190789104;14491.2193794132;2.27465743420139E-05;0.000188493810776465
56;;;;;;;14985.0067941665;-0.149078369140625;-0.00067718505859375;-0.1485595703125;3;;;0.31623;795.667275152556;6494.36134858224;6542.92104023177;83.015123724169;14496.5172983998;1.85860943669779E-05;0.000151702623253998
57;;;;;;;14985.2509351659;-0.151519775390625;-0.0006854248046875;-0.1510009765625;3;;;0.25119;1044.72613405494;8011.62768926449;8079.45734109456;82.5704820959006;14502.4754993848;1.60043512490548E-05;0.000122731593894347
58;;;;;;;14985.4950761653;-0.153961181640625;-0.0006927490234375;-0.153472900390625;3;;;0.19953;1332.54288242573;9973.67476437694;10062.2988844037;82.3900068971132;14509.2127303678;1.31609357060308E-05;9.85055671063123E-05
59;;;;;;;14985.7392171646;-0.156402587890625;-0.00069976806640625;-0.1558837890625;3;;;0.15849;1738.26479880927;12297.991512326;12420.2318717495;81.9547984783471;14516.9938223481;1.12682514081782E-05;7.97213751733673E-05
60;;;;;;;14985.983358164;-0.158843994140625;-0.0007061767578125;-0.1583251953125;3;;;0.12589;2336.09698908478;15267.9412936976;15445.6265813403;81.3008299329555;14526.0938173251;9.79218946146192E-06;6.39984446420341E-05
61;;;;;;;14986.2274991634;-0.161285400390625;-0.0007135009765625;-0.160675048828125;3;;;0.1;3087.24475330544;18960.9800273659;19210.6700498702;80.7521987622358;14536.8069852981;8.36538696727229E-06;5.1377829709747E-05
62;;;;;;;14986.4716401628;-0.163726806640625;-0.00071929931640625;-0.163116455078125;3;;;;;;;;;;
63;;;;;;;14986.7157811622;-0.166168212890625;-0.00072540283203125;-0.16558837890625;3;;;;;;;;;;
64;;;;;;;14986.9599221616;-0.168609619140625;-0.00073089599609375;-0.16802978515625;3;;;;;;;;;;
65;;;;;;;14987.2040631609;-0.171051025390625;-0.00073699951171875;-0.170501708984375;3;;;;;;;;;;
66;;;;;;;14987.4482041603;-0.173492431640625;-0.00074188232421875;-0.172943115234375;3;;;;;;;;;;
67;;;;;;;14987.6923451597;-0.175933837890625;-0.00074737548828125;-0.17535400390625;3;;;;;;;;;;
68;;;;;;;14987.9364861591;-0.178375244140625;-0.000751953125;-0.177764892578125;3;;;;;;;;;;
69;;;;;;;14988.1806271585;-0.180816650390625;-0.0007562255859375;-0.1802978515625;3;;;;;;;;;;
70;;;;;;;14988.4247681579;-0.183258056640625;-0.00076080322265625;-0.1826171875;3;;;;;;;;;;
71;;;;;;;14988.6689091572;-0.185699462890625;-0.0007659912109375;-0.18511962890625;3;;;;;;;;;;
72;;;;;;;14988.9130501566;-0.188140869140625;-0.000770263671875;-0.1875;3;;;;;;;;;;
73;;;;;;;14989.157191156;-0.190582275390625;-0.00077423095703125;-0.18994140625;3;;;;;;;;;;
74;;;;;;;14989.4013321554;-0.193023681640625;-0.00077972412109375;-0.192413330078125;3;;;;;;;;;;
75;;;;;;;14989.6454731548;-0.195465087890625;-0.00078125;-0.194854736328125;3;;;;;;;;;;
76;;;;;;;14989.8896141542;-0.197906494140625;-0.0007855224609375;-0.197235107421875;3;;;;;;;;;;
77;;;;;;;14990.1337551536;-0.200347900390625;-0.000787353515625;-0.19970703125;3;;;;;;;;;;
78;;;;;;;14990.3778961529;-0.202789306640625;-0.0007916259765625;-0.202178955078125;3;;;;;;;;;;
79;;;;;;;14990.6220371523;-0.205230712890625;-0.00079345703125;-0.204620361328125;3;;;;;;;;;;
80;;;;;;;14990.8661781517;-0.207672119140625;-0.00079681396484375;-0.207061767578125;3;;;;;;;;;;
81;;;;;;;14991.1103191511;-0.210113525390625;-0.0008001708984375;-0.20947265625;3;;;;;;;;;;
82;;;;;;;14991.3544601505;-0.212554931640625;-0.00080413818359375;-0.211883544921875;3;;;;;;;;;;
83;;;;;;;14991.5986011499;-0.214996337890625;-0.00080596923828125;-0.214324951171875;3;;;;;;;;;;
84;;;;;;;14991.8427421492;-0.217437744140625;-0.00080902099609375;-0.216766357421875;3;;;;;;;;;;
85;;;;;;;14992.0868831486;-0.219879150390625;-0.00081146240234375;-0.219207763671875;3;;;;;;;;;;
86;;;;;;;14992.331024148;-0.222320556640625;-0.000814208984375;-0.22161865234375;3;;;;;;;;;;
87;;;;;;;14992.5751651474;-0.224761962890625;-0.00081512451171875;-0.224090576171875;3;;;;;;;;;;
88;;;;;;;14992.8193061468;-0.227203369140625;-0.0008172607421875;-0.226531982421875;3;;;;;;;;;;
89;;;;;;;14993.0634471462;-0.229644775390625;-0.0008209228515625;-0.22894287109375;3;;;;;;;;;;
90;;;;;;;14993.3075881455;-0.232086181640625;-0.0008221435546875;-0.231414794921875;3;;;;;;;;;;
91;;;;;;;14993.5517291449;-0.234527587890625;-0.00082275390625;-0.233856201171875;3;;;;;;;;;;
92;;;;;;;14993.7958701443;-0.236968994140625;-0.0008251953125;-0.2362060546875;3;;;;;;;;;;
93;;;;;;;14994.0400111437;-0.239410400390625;-0.00082672119140625;-0.23870849609375;3;;;;;;;;;;
94;;;;;;;14994.2841521431;-0.241851806640625;-0.00082855224609375;-0.241180419921875;3;;;;;;;;;;
95;;;;;;;14994.5282931425;-0.244293212890625;-0.000831298828125;-0.24359130859375;3;;;;;;;;;;
96;;;;;;;14994.7724341418;-0.246734619140625;-0.0008319091796875;-0.246002197265625;3;;;;;;;;;;
97;;;;;;;14995.0165751412;-0.249176025390625;-0.000833740234375;-0.24847412109375;3;;;;;;;;;;
98;;;;;;;14995.2607161406;-0.251617431640625;-0.0008355712890625;-0.250885009765625;3;;;;;;;;;;
99;;;;;;;14995.50485714;-0.254058837890625;-0.0008367919921875;-0.253326416015625;3;;;;;;;;;;
100;;;;;;;14995.7489981394;-0.256500244140625;-0.00083648681640625;-0.2557373046875;3;;;;;;;;;;
101;;;;;;;14995.9931391388;-0.258941650390625;-0.00083770751953125;-0.2581787109375;3;;;;;;;;;;
102;;;;;;;14996.2372801381;-0.261383056640625;-0.000838623046875;-0.2606201171875;3;;;;;;;;;;
103;;;;;;;14996.4814211375;-0.263824462890625;-0.0008428955078125;-0.2630615234375;3;;;;;;;;;;
104;;;;;;;14996.7255621369;-0.266265869140625;-0.00084136962890625;-0.2655029296875;3;;;;;;;;;;
105;;;;;;;14996.9697031363;-0.268707275390625;-0.00084320068359375;-0.26788330078125;3;;;;;;;;;;
106;;;;;;;14997.2138441357;-0.271148681640625;-0.00084320068359375;-0.270416259765625;3;;;;;;;;;;
107;;;;;;;14997.4579851351;-0.273590087890625;-0.0008447265625;-0.272796630859375;3;;;;;;;;;;
108;;;;;;;14997.7021261344;-0.276031494140625;-0.00084686279296875;-0.27520751953125;3;;;;;;;;;;
109;;;;;;;14997.9462671338;-0.278472900390625;-0.00084686279296875;-0.27764892578125;3;;;;;;;;;;
110;;;;;;;14998.1904081332;-0.280914306640625;-0.00084747314453125;-0.28009033203125;3;;;;;;;;;;
111;;;;;;;14998.4345491326;-0.283355712890625;-0.00085052490234375;-0.28253173828125;3;;;;;;;;;;
112;;;;;;;14998.678690132;-0.285797119140625;-0.00084869384765625;-0.28497314453125;3;;;;;;;;;;
113;;;;;;;14998.9228311314;-0.288238525390625;-0.00085052490234375;-0.2874755859375;3;;;;;;;;;;
114;;;;;;;14999.1669721307;-0.290679931640625;-0.00085235595703125;-0.28985595703125;3;;;;;;;;;;
115;;;;;;;14999.4111131301;-0.293121337890625;-0.0008514404296875;-0.29229736328125;3;;;;;;;;;;
116;;;;;;;14999.6552541295;-0.295562744140625;-0.0008526611328125;-0.294769287109375;3;;;;;;;;;;
117;;;;;;;14999.8993951289;-0.298004150390625;-0.000853271484375;-0.297210693359375;3;;;;;;;;;;
118;;;;;;;15000.1435361283;-0.300445556640625;-0.0008538818359375;-0.29962158203125;3;;;;;;;;;;
119;;;;;;;15000.3876771277;-0.302886962890625;-0.00085418701171875;-0.302001953125;3;;;;;;;;;;
120;;;;;;;15000.631818127;-0.305328369140625;-0.00085540771484375;-0.304443359375;3;;;;;;;;;;
121;;;;;;;15000.8759591264;-0.307769775390625;-0.00085784912109375;-0.306976318359375;3;;;;;;;;;;
122;;;;;;;15001.1201001258;-0.310211181640625;-0.00085784912109375;-0.309356689453125;3;;;;;;;;;;
123;;;;;;;15001.3642411252;-0.312652587890625;-0.00085662841796875;-0.3118896484375;3;;;;;;;;;;
124;;;;;;;15001.6083821246;-0.315093994140625;-0.00085784912109375;-0.31427001953125;3;;;;;;;;;;
125;;;;;;;15001.852523124;-0.317535400390625;-0.00085906982421875;-0.31671142578125;3;;;;;;;;;;
126;;;;;;;15002.0966641233;-0.319976806640625;-0.0008575439453125;-0.319183349609375;3;;;;;;;;;;
